Command: vcs -l vcs.log -timescale=1ns/1ps -sverilog -ntb_opts uvm -debug_access+all \
-full64 -kdb -lca -P /home/cad/eda/SYNOPSYS/VERDI_2022/verdi/T-2022.06-SP1/share/PLI/VCS/LINUX64/novas.tab \
/home/cad/eda/SYNOPSYS/VERDI_2022/verdi/T-2022.06-SP1/share/PLI/VCS/LINUX64/pli.a \
../Interface/interface.sv +incdir+../tb +incdir+../test +incdir+../Master_agent +incdir+../Slave_agent \
../test/test_pkg.sv ../tb/top.sv
                         Chronologic VCS (TM)
       Version T-2022.06-SP1_Full64 -- Sat May 16 20:20:24 2026

                    Copyright (c) 1991 - 2022 Synopsys, Inc.
   This software and the associated documentation are proprietary to Synopsys,
 Inc. This software may only be used in accordance with the terms and conditions
 of a written license agreement with Synopsys, Inc. All other use, reproduction,
   or distribution of this software is strictly prohibited.  Licensed Products
     communicate with Synopsys servers for the purpose of providing software
    updates, detecting software piracy and verifying that customers are using
    Licensed Products in conformity with the applicable License Key for such
  Licensed Products. Synopsys will use information gathered in connection with
    this process to deliver software updates and pursue software pirates and
                                   infringers.

 Inclusivity & Diversity - Visit SolvNetPlus to read the "Synopsys Statement on
            Inclusivity and Diversity" (Refer to article 000036315 at
                        https://solvnetplus.synopsys.com)


Warning-[LCA_FEATURES_ENABLED] Usage warning
  LCA features enabled by '-lca' argument on the command line.  For more 
  information regarding list of LCA features please refer to Chapter "LCA 
  features" in the VCS Release Notes

Parsing design file '/home/cad/eda/SYNOPSYS/VCS/vcs/T-2022.06-SP1/etc/uvm/uvm_pkg.sv'
Parsing included file '/home/cad/eda/SYNOPSYS/VCS/vcs/T-2022.06-SP1/etc/uvm/uvm_macros.svh'.
Parsing included file '/home/cad/eda/SYNOPSYS/VCS/vcs/T-2022.06-SP1/etc/uvm/macros/uvm_version_defines.svh'.
Back to file '/home/cad/eda/SYNOPSYS/VCS/vcs/T-2022.06-SP1/etc/uvm/uvm_macros.svh'.
Parsing included file '/home/cad/eda/SYNOPSYS/VCS/vcs/T-2022.06-SP1/etc/uvm/macros/snps_macros.svp'.
Back to file '/home/cad/eda/SYNOPSYS/VCS/vcs/T-2022.06-SP1/etc/uvm/uvm_macros.svh'.
Parsing included file '/home/cad/eda/SYNOPSYS/VCS/vcs/T-2022.06-SP1/etc/uvm/macros/uvm_message_defines.svh'.
Back to file '/home/cad/eda/SYNOPSYS/VCS/vcs/T-2022.06-SP1/etc/uvm/uvm_macros.svh'.
Parsing included file '/home/cad/eda/SYNOPSYS/VCS/vcs/T-2022.06-SP1/etc/uvm/macros/uvm_phase_defines.svh'.
Back to file '/home/cad/eda/SYNOPSYS/VCS/vcs/T-2022.06-SP1/etc/uvm/uvm_macros.svh'.
Parsing included file '/home/cad/eda/SYNOPSYS/VCS/vcs/T-2022.06-SP1/etc/uvm/macros/uvm_object_defines.svh'.
Back to file '/home/cad/eda/SYNOPSYS/VCS/vcs/T-2022.06-SP1/etc/uvm/uvm_macros.svh'.
Parsing included file '/home/cad/eda/SYNOPSYS/VCS/vcs/T-2022.06-SP1/etc/uvm/macros/uvm_printer_defines.svh'.
Back to file '/home/cad/eda/SYNOPSYS/VCS/vcs/T-2022.06-SP1/etc/uvm/uvm_macros.svh'.
Parsing included file '/home/cad/eda/SYNOPSYS/VCS/vcs/T-2022.06-SP1/etc/uvm/macros/uvm_tlm_defines.svh'.
Parsing included file '/home/cad/eda/SYNOPSYS/VCS/vcs/T-2022.06-SP1/etc/uvm/tlm1/uvm_tlm_imps.svh'.
Back to file '/home/cad/eda/SYNOPSYS/VCS/vcs/T-2022.06-SP1/etc/uvm/macros/uvm_tlm_defines.svh'.
Back to file '/home/cad/eda/SYNOPSYS/VCS/vcs/T-2022.06-SP1/etc/uvm/uvm_macros.svh'.
Parsing included file '/home/cad/eda/SYNOPSYS/VCS/vcs/T-2022.06-SP1/etc/uvm/macros/uvm_sequence_defines.svh'.
Back to file '/home/cad/eda/SYNOPSYS/VCS/vcs/T-2022.06-SP1/etc/uvm/uvm_macros.svh'.
Parsing included file '/home/cad/eda/SYNOPSYS/VCS/vcs/T-2022.06-SP1/etc/uvm/macros/uvm_callback_defines.svh'.
Back to file '/home/cad/eda/SYNOPSYS/VCS/vcs/T-2022.06-SP1/etc/uvm/uvm_macros.svh'.
Parsing included file '/home/cad/eda/SYNOPSYS/VCS/vcs/T-2022.06-SP1/etc/uvm/macros/uvm_reg_defines.svh'.
Back to file '/home/cad/eda/SYNOPSYS/VCS/vcs/T-2022.06-SP1/etc/uvm/uvm_macros.svh'.
Parsing included file '/home/cad/eda/SYNOPSYS/VCS/vcs/T-2022.06-SP1/etc/uvm/macros/uvm_deprecated_defines.svh'.
Back to file '/home/cad/eda/SYNOPSYS/VCS/vcs/T-2022.06-SP1/etc/uvm/uvm_macros.svh'.
Back to file '/home/cad/eda/SYNOPSYS/VCS/vcs/T-2022.06-SP1/etc/uvm/uvm_pkg.sv'.
Parsing included file '/home/cad/eda/SYNOPSYS/VCS/vcs/T-2022.06-SP1/etc/uvm/directc/uvm_directc.svh'.
Parsing included file '/home/cad/eda/SYNOPSYS/VCS/vcs/T-2022.06-SP1/etc/uvm/directc/uvm_seed.vh'.
Back to file '/home/cad/eda/SYNOPSYS/VCS/vcs/T-2022.06-SP1/etc/uvm/directc/uvm_directc.svh'.
Back to file '/home/cad/eda/SYNOPSYS/VCS/vcs/T-2022.06-SP1/etc/uvm/uvm_pkg.sv'.
Parsing included file '/home/cad/eda/SYNOPSYS/VCS/vcs/T-2022.06-SP1/etc/uvm/dpi/uvm_dpi.svh'.
Parsing included file '/home/cad/eda/SYNOPSYS/VCS/vcs/T-2022.06-SP1/etc/uvm/dpi/uvm_hdl.svh'.
Back to file '/home/cad/eda/SYNOPSYS/VCS/vcs/T-2022.06-SP1/etc/uvm/dpi/uvm_dpi.svh'.
Parsing included file '/home/cad/eda/SYNOPSYS/VCS/vcs/T-2022.06-SP1/etc/uvm/dpi/uvm_svcmd_dpi.svh'.
Back to file '/home/cad/eda/SYNOPSYS/VCS/vcs/T-2022.06-SP1/etc/uvm/dpi/uvm_dpi.svh'.
Parsing included file '/home/cad/eda/SYNOPSYS/VCS/vcs/T-2022.06-SP1/etc/uvm/dpi/uvm_regex.svh'.
Back to file '/home/cad/eda/SYNOPSYS/VCS/vcs/T-2022.06-SP1/etc/uvm/dpi/uvm_dpi.svh'.
Back to file '/home/cad/eda/SYNOPSYS/VCS/vcs/T-2022.06-SP1/etc/uvm/uvm_pkg.sv'.
Parsing included file '/home/cad/eda/SYNOPSYS/VCS/vcs/T-2022.06-SP1/etc/uvm/base/uvm_base.svh'.
Parsing included file '/home/cad/eda/SYNOPSYS/VCS/vcs/T-2022.06-SP1/etc/uvm/base/uvm_version.svh'.
Back to file '/home/cad/eda/SYNOPSYS/VCS/vcs/T-2022.06-SP1/etc/uvm/base/uvm_base.svh'.
Parsing included file '/home/cad/eda/SYNOPSYS/VCS/vcs/T-2022.06-SP1/etc/uvm/base/uvm_object_globals.svh'.
Back to file '/home/cad/eda/SYNOPSYS/VCS/vcs/T-2022.06-SP1/etc/uvm/base/uvm_base.svh'.
Parsing included file '/home/cad/eda/SYNOPSYS/VCS/vcs/T-2022.06-SP1/etc/uvm/base/uvm_misc.svh'.
Back to file '/home/cad/eda/SYNOPSYS/VCS/vcs/T-2022.06-SP1/etc/uvm/base/uvm_base.svh'.
Parsing included file '/home/cad/eda/SYNOPSYS/VCS/vcs/T-2022.06-SP1/etc/uvm/base/uvm_object.svh'.
Back to file '/home/cad/eda/SYNOPSYS/VCS/vcs/T-2022.06-SP1/etc/uvm/base/uvm_base.svh'.
Parsing included file '/home/cad/eda/SYNOPSYS/VCS/vcs/T-2022.06-SP1/etc/uvm/base/uvm_pool.svh'.
Back to file '/home/cad/eda/SYNOPSYS/VCS/vcs/T-2022.06-SP1/etc/uvm/base/uvm_base.svh'.
Parsing included file '/home/cad/eda/SYNOPSYS/VCS/vcs/T-2022.06-SP1/etc/uvm/base/uvm_queue.svh'.
Back to file '/home/cad/eda/SYNOPSYS/VCS/vcs/T-2022.06-SP1/etc/uvm/base/uvm_base.svh'.
Parsing included file '/home/cad/eda/SYNOPSYS/VCS/vcs/T-2022.06-SP1/etc/uvm/base/uvm_factory.svh'.
Back to file '/home/cad/eda/SYNOPSYS/VCS/vcs/T-2022.06-SP1/etc/uvm/base/uvm_base.svh'.
Parsing included file '/home/cad/eda/SYNOPSYS/VCS/vcs/T-2022.06-SP1/etc/uvm/base/uvm_registry.svh'.
Back to file '/home/cad/eda/SYNOPSYS/VCS/vcs/T-2022.06-SP1/etc/uvm/base/uvm_base.svh'.
Parsing included file '/home/cad/eda/SYNOPSYS/VCS/vcs/T-2022.06-SP1/etc/uvm/base/uvm_spell_chkr.svh'.
Back to file '/home/cad/eda/SYNOPSYS/VCS/vcs/T-2022.06-SP1/etc/uvm/base/uvm_base.svh'.
Parsing included file '/home/cad/eda/SYNOPSYS/VCS/vcs/T-2022.06-SP1/etc/uvm/base/uvm_resource.svh'.
Back to file '/home/cad/eda/SYNOPSYS/VCS/vcs/T-2022.06-SP1/etc/uvm/base/uvm_base.svh'.
Parsing included file '/home/cad/eda/SYNOPSYS/VCS/vcs/T-2022.06-SP1/etc/uvm/deprecated/uvm_resource_converter.svh'.
Back to file '/home/cad/eda/SYNOPSYS/VCS/vcs/T-2022.06-SP1/etc/uvm/base/uvm_base.svh'.
Parsing included file '/home/cad/eda/SYNOPSYS/VCS/vcs/T-2022.06-SP1/etc/uvm/base/uvm_resource_specializations.svh'.
Back to file '/home/cad/eda/SYNOPSYS/VCS/vcs/T-2022.06-SP1/etc/uvm/base/uvm_base.svh'.
Parsing included file '/home/cad/eda/SYNOPSYS/VCS/vcs/T-2022.06-SP1/etc/uvm/base/uvm_resource_db.svh'.
Back to file '/home/cad/eda/SYNOPSYS/VCS/vcs/T-2022.06-SP1/etc/uvm/base/uvm_base.svh'.
Parsing included file '/home/cad/eda/SYNOPSYS/VCS/vcs/T-2022.06-SP1/etc/uvm/base/uvm_config_db.svh'.
Back to file '/home/cad/eda/SYNOPSYS/VCS/vcs/T-2022.06-SP1/etc/uvm/base/uvm_base.svh'.
Parsing included file '/home/cad/eda/SYNOPSYS/VCS/vcs/T-2022.06-SP1/etc/uvm/base/uvm_printer.svh'.
Back to file '/home/cad/eda/SYNOPSYS/VCS/vcs/T-2022.06-SP1/etc/uvm/base/uvm_base.svh'.
Parsing included file '/home/cad/eda/SYNOPSYS/VCS/vcs/T-2022.06-SP1/etc/uvm/base/uvm_comparer.svh'.
Back to file '/home/cad/eda/SYNOPSYS/VCS/vcs/T-2022.06-SP1/etc/uvm/base/uvm_base.svh'.
Parsing included file '/home/cad/eda/SYNOPSYS/VCS/vcs/T-2022.06-SP1/etc/uvm/base/uvm_packer.svh'.
Back to file '/home/cad/eda/SYNOPSYS/VCS/vcs/T-2022.06-SP1/etc/uvm/base/uvm_base.svh'.
Parsing included file '/home/cad/eda/SYNOPSYS/VCS/vcs/T-2022.06-SP1/etc/uvm/base/uvm_recorder.svh'.
Back to file '/home/cad/eda/SYNOPSYS/VCS/vcs/T-2022.06-SP1/etc/uvm/base/uvm_base.svh'.
Parsing included file '/home/cad/eda/SYNOPSYS/VCS/vcs/T-2022.06-SP1/etc/uvm/base/uvm_event_callback.svh'.
Back to file '/home/cad/eda/SYNOPSYS/VCS/vcs/T-2022.06-SP1/etc/uvm/base/uvm_base.svh'.
Parsing included file '/home/cad/eda/SYNOPSYS/VCS/vcs/T-2022.06-SP1/etc/uvm/base/uvm_event.svh'.
Back to file '/home/cad/eda/SYNOPSYS/VCS/vcs/T-2022.06-SP1/etc/uvm/base/uvm_base.svh'.
Parsing included file '/home/cad/eda/SYNOPSYS/VCS/vcs/T-2022.06-SP1/etc/uvm/base/uvm_barrier.svh'.
Back to file '/home/cad/eda/SYNOPSYS/VCS/vcs/T-2022.06-SP1/etc/uvm/base/uvm_base.svh'.
Parsing included file '/home/cad/eda/SYNOPSYS/VCS/vcs/T-2022.06-SP1/etc/uvm/base/uvm_callback.svh'.
Parsing included file '/home/cad/eda/SYNOPSYS/VCS/vcs/T-2022.06-SP1/etc/uvm/uvm_macros.svh'.
Back to file '/home/cad/eda/SYNOPSYS/VCS/vcs/T-2022.06-SP1/etc/uvm/base/uvm_callback.svh'.
Back to file '/home/cad/eda/SYNOPSYS/VCS/vcs/T-2022.06-SP1/etc/uvm/base/uvm_base.svh'.
Parsing included file '/home/cad/eda/SYNOPSYS/VCS/vcs/T-2022.06-SP1/etc/uvm/base/uvm_report_catcher.svh'.
Back to file '/home/cad/eda/SYNOPSYS/VCS/vcs/T-2022.06-SP1/etc/uvm/base/uvm_base.svh'.
Parsing included file '/home/cad/eda/SYNOPSYS/VCS/vcs/T-2022.06-SP1/etc/uvm/base/uvm_report_server.svh'.
Back to file '/home/cad/eda/SYNOPSYS/VCS/vcs/T-2022.06-SP1/etc/uvm/base/uvm_base.svh'.
Parsing included file '/home/cad/eda/SYNOPSYS/VCS/vcs/T-2022.06-SP1/etc/uvm/base/uvm_report_handler.svh'.
Back to file '/home/cad/eda/SYNOPSYS/VCS/vcs/T-2022.06-SP1/etc/uvm/base/uvm_base.svh'.
Parsing included file '/home/cad/eda/SYNOPSYS/VCS/vcs/T-2022.06-SP1/etc/uvm/base/uvm_report_object.svh'.
Back to file '/home/cad/eda/SYNOPSYS/VCS/vcs/T-2022.06-SP1/etc/uvm/base/uvm_base.svh'.
Parsing included file '/home/cad/eda/SYNOPSYS/VCS/vcs/T-2022.06-SP1/etc/uvm/base/uvm_transaction.svh'.
Back to file '/home/cad/eda/SYNOPSYS/VCS/vcs/T-2022.06-SP1/etc/uvm/base/uvm_base.svh'.
Parsing included file '/home/cad/eda/SYNOPSYS/VCS/vcs/T-2022.06-SP1/etc/uvm/base/uvm_phase.svh'.
Back to file '/home/cad/eda/SYNOPSYS/VCS/vcs/T-2022.06-SP1/etc/uvm/base/uvm_base.svh'.
Parsing included file '/home/cad/eda/SYNOPSYS/VCS/vcs/T-2022.06-SP1/etc/uvm/base/uvm_domain.svh'.
Back to file '/home/cad/eda/SYNOPSYS/VCS/vcs/T-2022.06-SP1/etc/uvm/base/uvm_base.svh'.
Parsing included file '/home/cad/eda/SYNOPSYS/VCS/vcs/T-2022.06-SP1/etc/uvm/base/uvm_bottomup_phase.svh'.
Back to file '/home/cad/eda/SYNOPSYS/VCS/vcs/T-2022.06-SP1/etc/uvm/base/uvm_base.svh'.
Parsing included file '/home/cad/eda/SYNOPSYS/VCS/vcs/T-2022.06-SP1/etc/uvm/base/uvm_topdown_phase.svh'.
Back to file '/home/cad/eda/SYNOPSYS/VCS/vcs/T-2022.06-SP1/etc/uvm/base/uvm_base.svh'.
Parsing included file '/home/cad/eda/SYNOPSYS/VCS/vcs/T-2022.06-SP1/etc/uvm/base/uvm_task_phase.svh'.
Back to file '/home/cad/eda/SYNOPSYS/VCS/vcs/T-2022.06-SP1/etc/uvm/base/uvm_base.svh'.
Parsing included file '/home/cad/eda/SYNOPSYS/VCS/vcs/T-2022.06-SP1/etc/uvm/base/uvm_common_phases.svh'.
Back to file '/home/cad/eda/SYNOPSYS/VCS/vcs/T-2022.06-SP1/etc/uvm/base/uvm_base.svh'.
Parsing included file '/home/cad/eda/SYNOPSYS/VCS/vcs/T-2022.06-SP1/etc/uvm/base/uvm_runtime_phases.svh'.
Back to file '/home/cad/eda/SYNOPSYS/VCS/vcs/T-2022.06-SP1/etc/uvm/base/uvm_base.svh'.
Parsing included file '/home/cad/eda/SYNOPSYS/VCS/vcs/T-2022.06-SP1/etc/uvm/base/uvm_component.svh'.
Parsing included file '/home/cad/eda/SYNOPSYS/VCS/vcs/T-2022.06-SP1/etc/uvm/base/uvm_root.svh'.
Back to file '/home/cad/eda/SYNOPSYS/VCS/vcs/T-2022.06-SP1/etc/uvm/base/uvm_component.svh'.
Back to file '/home/cad/eda/SYNOPSYS/VCS/vcs/T-2022.06-SP1/etc/uvm/base/uvm_base.svh'.
Parsing included file '/home/cad/eda/SYNOPSYS/VCS/vcs/T-2022.06-SP1/etc/uvm/base/uvm_objection.svh'.
Back to file '/home/cad/eda/SYNOPSYS/VCS/vcs/T-2022.06-SP1/etc/uvm/base/uvm_base.svh'.
Parsing included file '/home/cad/eda/SYNOPSYS/VCS/vcs/T-2022.06-SP1/etc/uvm/base/uvm_heartbeat.svh'.
Back to file '/home/cad/eda/SYNOPSYS/VCS/vcs/T-2022.06-SP1/etc/uvm/base/uvm_base.svh'.
Parsing included file '/home/cad/eda/SYNOPSYS/VCS/vcs/T-2022.06-SP1/etc/uvm/base/uvm_globals.svh'.
Back to file '/home/cad/eda/SYNOPSYS/VCS/vcs/T-2022.06-SP1/etc/uvm/base/uvm_base.svh'.
Parsing included file '/home/cad/eda/SYNOPSYS/VCS/vcs/T-2022.06-SP1/etc/uvm/base/uvm_cmdline_processor.svh'.
Back to file '/home/cad/eda/SYNOPSYS/VCS/vcs/T-2022.06-SP1/etc/uvm/base/uvm_base.svh'.
Back to file '/home/cad/eda/SYNOPSYS/VCS/vcs/T-2022.06-SP1/etc/uvm/uvm_pkg.sv'.
Parsing included file '/home/cad/eda/SYNOPSYS/VCS/vcs/T-2022.06-SP1/etc/uvm/tlm1/uvm_tlm.svh'.
Parsing included file '/home/cad/eda/SYNOPSYS/VCS/vcs/T-2022.06-SP1/etc/uvm/tlm1/uvm_tlm_ifs.svh'.
Back to file '/home/cad/eda/SYNOPSYS/VCS/vcs/T-2022.06-SP1/etc/uvm/tlm1/uvm_tlm.svh'.
Parsing included file '/home/cad/eda/SYNOPSYS/VCS/vcs/T-2022.06-SP1/etc/uvm/tlm1/uvm_sqr_ifs.svh'.
Back to file '/home/cad/eda/SYNOPSYS/VCS/vcs/T-2022.06-SP1/etc/uvm/tlm1/uvm_tlm.svh'.
Parsing included file '/home/cad/eda/SYNOPSYS/VCS/vcs/T-2022.06-SP1/etc/uvm/base/uvm_port_base.svh'.
Back to file '/home/cad/eda/SYNOPSYS/VCS/vcs/T-2022.06-SP1/etc/uvm/tlm1/uvm_tlm.svh'.
Parsing included file '/home/cad/eda/SYNOPSYS/VCS/vcs/T-2022.06-SP1/etc/uvm/tlm1/uvm_tlm_imps.svh'.
Back to file '/home/cad/eda/SYNOPSYS/VCS/vcs/T-2022.06-SP1/etc/uvm/tlm1/uvm_tlm.svh'.
Parsing included file '/home/cad/eda/SYNOPSYS/VCS/vcs/T-2022.06-SP1/etc/uvm/tlm1/uvm_imps.svh'.
Back to file '/home/cad/eda/SYNOPSYS/VCS/vcs/T-2022.06-SP1/etc/uvm/tlm1/uvm_tlm.svh'.
Parsing included file '/home/cad/eda/SYNOPSYS/VCS/vcs/T-2022.06-SP1/etc/uvm/tlm1/uvm_ports.svh'.
Back to file '/home/cad/eda/SYNOPSYS/VCS/vcs/T-2022.06-SP1/etc/uvm/tlm1/uvm_tlm.svh'.
Parsing included file '/home/cad/eda/SYNOPSYS/VCS/vcs/T-2022.06-SP1/etc/uvm/tlm1/uvm_exports.svh'.
Back to file '/home/cad/eda/SYNOPSYS/VCS/vcs/T-2022.06-SP1/etc/uvm/tlm1/uvm_tlm.svh'.
Parsing included file '/home/cad/eda/SYNOPSYS/VCS/vcs/T-2022.06-SP1/etc/uvm/tlm1/uvm_analysis_port.svh'.
Back to file '/home/cad/eda/SYNOPSYS/VCS/vcs/T-2022.06-SP1/etc/uvm/tlm1/uvm_tlm.svh'.
Parsing included file '/home/cad/eda/SYNOPSYS/VCS/vcs/T-2022.06-SP1/etc/uvm/tlm1/uvm_tlm_fifo_base.svh'.
Back to file '/home/cad/eda/SYNOPSYS/VCS/vcs/T-2022.06-SP1/etc/uvm/tlm1/uvm_tlm.svh'.
Parsing included file '/home/cad/eda/SYNOPSYS/VCS/vcs/T-2022.06-SP1/etc/uvm/tlm1/uvm_tlm_fifos.svh'.
Back to file '/home/cad/eda/SYNOPSYS/VCS/vcs/T-2022.06-SP1/etc/uvm/tlm1/uvm_tlm.svh'.
Parsing included file '/home/cad/eda/SYNOPSYS/VCS/vcs/T-2022.06-SP1/etc/uvm/tlm1/uvm_tlm_req_rsp.svh'.
Back to file '/home/cad/eda/SYNOPSYS/VCS/vcs/T-2022.06-SP1/etc/uvm/tlm1/uvm_tlm.svh'.
Parsing included file '/home/cad/eda/SYNOPSYS/VCS/vcs/T-2022.06-SP1/etc/uvm/tlm1/uvm_sqr_connections.svh'.
Back to file '/home/cad/eda/SYNOPSYS/VCS/vcs/T-2022.06-SP1/etc/uvm/tlm1/uvm_tlm.svh'.
Back to file '/home/cad/eda/SYNOPSYS/VCS/vcs/T-2022.06-SP1/etc/uvm/uvm_pkg.sv'.
Parsing included file '/home/cad/eda/SYNOPSYS/VCS/vcs/T-2022.06-SP1/etc/uvm/comps/uvm_comps.svh'.
Parsing included file '/home/cad/eda/SYNOPSYS/VCS/vcs/T-2022.06-SP1/etc/uvm/comps/uvm_pair.svh'.
Back to file '/home/cad/eda/SYNOPSYS/VCS/vcs/T-2022.06-SP1/etc/uvm/comps/uvm_comps.svh'.
Parsing included file '/home/cad/eda/SYNOPSYS/VCS/vcs/T-2022.06-SP1/etc/uvm/comps/uvm_policies.svh'.
Back to file '/home/cad/eda/SYNOPSYS/VCS/vcs/T-2022.06-SP1/etc/uvm/comps/uvm_comps.svh'.
Parsing included file '/home/cad/eda/SYNOPSYS/VCS/vcs/T-2022.06-SP1/etc/uvm/comps/uvm_in_order_comparator.svh'.
Back to file '/home/cad/eda/SYNOPSYS/VCS/vcs/T-2022.06-SP1/etc/uvm/comps/uvm_comps.svh'.
Parsing included file '/home/cad/eda/SYNOPSYS/VCS/vcs/T-2022.06-SP1/etc/uvm/comps/uvm_algorithmic_comparator.svh'.
Back to file '/home/cad/eda/SYNOPSYS/VCS/vcs/T-2022.06-SP1/etc/uvm/comps/uvm_comps.svh'.
Parsing included file '/home/cad/eda/SYNOPSYS/VCS/vcs/T-2022.06-SP1/etc/uvm/comps/uvm_random_stimulus.svh'.
Back to file '/home/cad/eda/SYNOPSYS/VCS/vcs/T-2022.06-SP1/etc/uvm/comps/uvm_comps.svh'.
Parsing included file '/home/cad/eda/SYNOPSYS/VCS/vcs/T-2022.06-SP1/etc/uvm/comps/uvm_subscriber.svh'.
Back to file '/home/cad/eda/SYNOPSYS/VCS/vcs/T-2022.06-SP1/etc/uvm/comps/uvm_comps.svh'.
Parsing included file '/home/cad/eda/SYNOPSYS/VCS/vcs/T-2022.06-SP1/etc/uvm/comps/uvm_monitor.svh'.
Back to file '/home/cad/eda/SYNOPSYS/VCS/vcs/T-2022.06-SP1/etc/uvm/comps/uvm_comps.svh'.
Parsing included file '/home/cad/eda/SYNOPSYS/VCS/vcs/T-2022.06-SP1/etc/uvm/comps/uvm_driver.svh'.
Back to file '/home/cad/eda/SYNOPSYS/VCS/vcs/T-2022.06-SP1/etc/uvm/comps/uvm_comps.svh'.
Parsing included file '/home/cad/eda/SYNOPSYS/VCS/vcs/T-2022.06-SP1/etc/uvm/comps/uvm_push_driver.svh'.
Back to file '/home/cad/eda/SYNOPSYS/VCS/vcs/T-2022.06-SP1/etc/uvm/comps/uvm_comps.svh'.
Parsing included file '/home/cad/eda/SYNOPSYS/VCS/vcs/T-2022.06-SP1/etc/uvm/comps/uvm_scoreboard.svh'.
Back to file '/home/cad/eda/SYNOPSYS/VCS/vcs/T-2022.06-SP1/etc/uvm/comps/uvm_comps.svh'.
Parsing included file '/home/cad/eda/SYNOPSYS/VCS/vcs/T-2022.06-SP1/etc/uvm/comps/uvm_agent.svh'.
Back to file '/home/cad/eda/SYNOPSYS/VCS/vcs/T-2022.06-SP1/etc/uvm/comps/uvm_comps.svh'.
Parsing included file '/home/cad/eda/SYNOPSYS/VCS/vcs/T-2022.06-SP1/etc/uvm/comps/uvm_env.svh'.
Back to file '/home/cad/eda/SYNOPSYS/VCS/vcs/T-2022.06-SP1/etc/uvm/comps/uvm_comps.svh'.
Parsing included file '/home/cad/eda/SYNOPSYS/VCS/vcs/T-2022.06-SP1/etc/uvm/comps/uvm_test.svh'.
Back to file '/home/cad/eda/SYNOPSYS/VCS/vcs/T-2022.06-SP1/etc/uvm/comps/uvm_comps.svh'.
Back to file '/home/cad/eda/SYNOPSYS/VCS/vcs/T-2022.06-SP1/etc/uvm/uvm_pkg.sv'.
Parsing included file '/home/cad/eda/SYNOPSYS/VCS/vcs/T-2022.06-SP1/etc/uvm/seq/uvm_seq.svh'.
Parsing included file '/home/cad/eda/SYNOPSYS/VCS/vcs/T-2022.06-SP1/etc/uvm/seq/uvm_sequence_item.svh'.
Back to file '/home/cad/eda/SYNOPSYS/VCS/vcs/T-2022.06-SP1/etc/uvm/seq/uvm_seq.svh'.
Parsing included file '/home/cad/eda/SYNOPSYS/VCS/vcs/T-2022.06-SP1/etc/uvm/seq/uvm_sequencer_base.svh'.
Back to file '/home/cad/eda/SYNOPSYS/VCS/vcs/T-2022.06-SP1/etc/uvm/seq/uvm_seq.svh'.
Parsing included file '/home/cad/eda/SYNOPSYS/VCS/vcs/T-2022.06-SP1/etc/uvm/seq/uvm_sequencer_analysis_fifo.svh'.
Back to file '/home/cad/eda/SYNOPSYS/VCS/vcs/T-2022.06-SP1/etc/uvm/seq/uvm_seq.svh'.
Parsing included file '/home/cad/eda/SYNOPSYS/VCS/vcs/T-2022.06-SP1/etc/uvm/seq/uvm_sequencer_param_base.svh'.
Back to file '/home/cad/eda/SYNOPSYS/VCS/vcs/T-2022.06-SP1/etc/uvm/seq/uvm_seq.svh'.
Parsing included file '/home/cad/eda/SYNOPSYS/VCS/vcs/T-2022.06-SP1/etc/uvm/seq/uvm_sequencer.svh'.
Back to file '/home/cad/eda/SYNOPSYS/VCS/vcs/T-2022.06-SP1/etc/uvm/seq/uvm_seq.svh'.
Parsing included file '/home/cad/eda/SYNOPSYS/VCS/vcs/T-2022.06-SP1/etc/uvm/seq/uvm_push_sequencer.svh'.
Back to file '/home/cad/eda/SYNOPSYS/VCS/vcs/T-2022.06-SP1/etc/uvm/seq/uvm_seq.svh'.
Parsing included file '/home/cad/eda/SYNOPSYS/VCS/vcs/T-2022.06-SP1/etc/uvm/seq/uvm_sequence_base.svh'.
Back to file '/home/cad/eda/SYNOPSYS/VCS/vcs/T-2022.06-SP1/etc/uvm/seq/uvm_seq.svh'.
Parsing included file '/home/cad/eda/SYNOPSYS/VCS/vcs/T-2022.06-SP1/etc/uvm/seq/uvm_sequence.svh'.
Back to file '/home/cad/eda/SYNOPSYS/VCS/vcs/T-2022.06-SP1/etc/uvm/seq/uvm_seq.svh'.
Parsing included file '/home/cad/eda/SYNOPSYS/VCS/vcs/T-2022.06-SP1/etc/uvm/seq/uvm_sequence_library.svh'.
Back to file '/home/cad/eda/SYNOPSYS/VCS/vcs/T-2022.06-SP1/etc/uvm/seq/uvm_seq.svh'.
Parsing included file '/home/cad/eda/SYNOPSYS/VCS/vcs/T-2022.06-SP1/etc/uvm/seq/uvm_sequence_builtin.svh'.
Back to file '/home/cad/eda/SYNOPSYS/VCS/vcs/T-2022.06-SP1/etc/uvm/seq/uvm_seq.svh'.
Back to file '/home/cad/eda/SYNOPSYS/VCS/vcs/T-2022.06-SP1/etc/uvm/uvm_pkg.sv'.
Parsing included file '/home/cad/eda/SYNOPSYS/VCS/vcs/T-2022.06-SP1/etc/uvm/tlm2/uvm_tlm2.svh'.
Parsing included file '/home/cad/eda/SYNOPSYS/VCS/vcs/T-2022.06-SP1/etc/uvm/tlm2/uvm_tlm2_defines.svh'.
Back to file '/home/cad/eda/SYNOPSYS/VCS/vcs/T-2022.06-SP1/etc/uvm/tlm2/uvm_tlm2.svh'.
Parsing included file '/home/cad/eda/SYNOPSYS/VCS/vcs/T-2022.06-SP1/etc/uvm/tlm2/uvm_tlm2_time.svh'.
Back to file '/home/cad/eda/SYNOPSYS/VCS/vcs/T-2022.06-SP1/etc/uvm/tlm2/uvm_tlm2.svh'.
Parsing included file '/home/cad/eda/SYNOPSYS/VCS/vcs/T-2022.06-SP1/etc/uvm/tlm2/uvm_tlm2_generic_payload.svh'.
Back to file '/home/cad/eda/SYNOPSYS/VCS/vcs/T-2022.06-SP1/etc/uvm/tlm2/uvm_tlm2.svh'.
Parsing included file '/home/cad/eda/SYNOPSYS/VCS/vcs/T-2022.06-SP1/etc/uvm/tlm2/uvm_tlm2_ifs.svh'.
Back to file '/home/cad/eda/SYNOPSYS/VCS/vcs/T-2022.06-SP1/etc/uvm/tlm2/uvm_tlm2.svh'.
Parsing included file '/home/cad/eda/SYNOPSYS/VCS/vcs/T-2022.06-SP1/etc/uvm/tlm2/uvm_tlm2_imps.svh'.
Back to file '/home/cad/eda/SYNOPSYS/VCS/vcs/T-2022.06-SP1/etc/uvm/tlm2/uvm_tlm2.svh'.
Parsing included file '/home/cad/eda/SYNOPSYS/VCS/vcs/T-2022.06-SP1/etc/uvm/tlm2/uvm_tlm2_ports.svh'.
Back to file '/home/cad/eda/SYNOPSYS/VCS/vcs/T-2022.06-SP1/etc/uvm/tlm2/uvm_tlm2.svh'.
Parsing included file '/home/cad/eda/SYNOPSYS/VCS/vcs/T-2022.06-SP1/etc/uvm/tlm2/uvm_tlm2_exports.svh'.
Back to file '/home/cad/eda/SYNOPSYS/VCS/vcs/T-2022.06-SP1/etc/uvm/tlm2/uvm_tlm2.svh'.
Parsing included file '/home/cad/eda/SYNOPSYS/VCS/vcs/T-2022.06-SP1/etc/uvm/tlm2/uvm_tlm2_sockets_base.svh'.
Back to file '/home/cad/eda/SYNOPSYS/VCS/vcs/T-2022.06-SP1/etc/uvm/tlm2/uvm_tlm2.svh'.
Parsing included file '/home/cad/eda/SYNOPSYS/VCS/vcs/T-2022.06-SP1/etc/uvm/tlm2/uvm_tlm2_sockets.svh'.
Back to file '/home/cad/eda/SYNOPSYS/VCS/vcs/T-2022.06-SP1/etc/uvm/tlm2/uvm_tlm2.svh'.
Back to file '/home/cad/eda/SYNOPSYS/VCS/vcs/T-2022.06-SP1/etc/uvm/uvm_pkg.sv'.
Parsing included file '/home/cad/eda/SYNOPSYS/VCS/vcs/T-2022.06-SP1/etc/uvm/reg/uvm_reg_model.svh'.
Parsing included file '/home/cad/eda/SYNOPSYS/VCS/vcs/T-2022.06-SP1/etc/uvm/reg/uvm_reg_item.svh'.
Back to file '/home/cad/eda/SYNOPSYS/VCS/vcs/T-2022.06-SP1/etc/uvm/reg/uvm_reg_model.svh'.
Parsing included file '/home/cad/eda/SYNOPSYS/VCS/vcs/T-2022.06-SP1/etc/uvm/reg/uvm_reg_adapter.svh'.
Back to file '/home/cad/eda/SYNOPSYS/VCS/vcs/T-2022.06-SP1/etc/uvm/reg/uvm_reg_model.svh'.
Parsing included file '/home/cad/eda/SYNOPSYS/VCS/vcs/T-2022.06-SP1/etc/uvm/reg/uvm_reg_predictor.svh'.
Back to file '/home/cad/eda/SYNOPSYS/VCS/vcs/T-2022.06-SP1/etc/uvm/reg/uvm_reg_model.svh'.
Parsing included file '/home/cad/eda/SYNOPSYS/VCS/vcs/T-2022.06-SP1/etc/uvm/reg/uvm_reg_sequence.svh'.
Back to file '/home/cad/eda/SYNOPSYS/VCS/vcs/T-2022.06-SP1/etc/uvm/reg/uvm_reg_model.svh'.
Parsing included file '/home/cad/eda/SYNOPSYS/VCS/vcs/T-2022.06-SP1/etc/uvm/reg/uvm_reg_cbs.svh'.
Back to file '/home/cad/eda/SYNOPSYS/VCS/vcs/T-2022.06-SP1/etc/uvm/reg/uvm_reg_model.svh'.
Parsing included file '/home/cad/eda/SYNOPSYS/VCS/vcs/T-2022.06-SP1/etc/uvm/reg/uvm_reg_backdoor.svh'.
Back to file '/home/cad/eda/SYNOPSYS/VCS/vcs/T-2022.06-SP1/etc/uvm/reg/uvm_reg_model.svh'.
Parsing included file '/home/cad/eda/SYNOPSYS/VCS/vcs/T-2022.06-SP1/etc/uvm/reg/uvm_reg_field.svh'.
Back to file '/home/cad/eda/SYNOPSYS/VCS/vcs/T-2022.06-SP1/etc/uvm/reg/uvm_reg_model.svh'.
Parsing included file '/home/cad/eda/SYNOPSYS/VCS/vcs/T-2022.06-SP1/etc/uvm/reg/uvm_vreg_field.svh'.
Back to file '/home/cad/eda/SYNOPSYS/VCS/vcs/T-2022.06-SP1/etc/uvm/reg/uvm_reg_model.svh'.
Parsing included file '/home/cad/eda/SYNOPSYS/VCS/vcs/T-2022.06-SP1/etc/uvm/reg/uvm_reg.svh'.
Back to file '/home/cad/eda/SYNOPSYS/VCS/vcs/T-2022.06-SP1/etc/uvm/reg/uvm_reg_model.svh'.
Parsing included file '/home/cad/eda/SYNOPSYS/VCS/vcs/T-2022.06-SP1/etc/uvm/reg/uvm_reg_indirect.svh'.
Back to file '/home/cad/eda/SYNOPSYS/VCS/vcs/T-2022.06-SP1/etc/uvm/reg/uvm_reg_model.svh'.
Parsing included file '/home/cad/eda/SYNOPSYS/VCS/vcs/T-2022.06-SP1/etc/uvm/reg/uvm_reg_fifo.svh'.
Back to file '/home/cad/eda/SYNOPSYS/VCS/vcs/T-2022.06-SP1/etc/uvm/reg/uvm_reg_model.svh'.
Parsing included file '/home/cad/eda/SYNOPSYS/VCS/vcs/T-2022.06-SP1/etc/uvm/reg/uvm_reg_file.svh'.
Back to file '/home/cad/eda/SYNOPSYS/VCS/vcs/T-2022.06-SP1/etc/uvm/reg/uvm_reg_model.svh'.
Parsing included file '/home/cad/eda/SYNOPSYS/VCS/vcs/T-2022.06-SP1/etc/uvm/reg/uvm_mem_mam.svh'.
Back to file '/home/cad/eda/SYNOPSYS/VCS/vcs/T-2022.06-SP1/etc/uvm/reg/uvm_reg_model.svh'.
Parsing included file '/home/cad/eda/SYNOPSYS/VCS/vcs/T-2022.06-SP1/etc/uvm/reg/uvm_vreg.svh'.
Back to file '/home/cad/eda/SYNOPSYS/VCS/vcs/T-2022.06-SP1/etc/uvm/reg/uvm_reg_model.svh'.
Parsing included file '/home/cad/eda/SYNOPSYS/VCS/vcs/T-2022.06-SP1/etc/uvm/reg/uvm_mem.svh'.
Back to file '/home/cad/eda/SYNOPSYS/VCS/vcs/T-2022.06-SP1/etc/uvm/reg/uvm_reg_model.svh'.
Parsing included file '/home/cad/eda/SYNOPSYS/VCS/vcs/T-2022.06-SP1/etc/uvm/reg/uvm_reg_map.svh'.
Back to file '/home/cad/eda/SYNOPSYS/VCS/vcs/T-2022.06-SP1/etc/uvm/reg/uvm_reg_model.svh'.
Parsing included file '/home/cad/eda/SYNOPSYS/VCS/vcs/T-2022.06-SP1/etc/uvm/reg/uvm_reg_block.svh'.
Back to file '/home/cad/eda/SYNOPSYS/VCS/vcs/T-2022.06-SP1/etc/uvm/reg/uvm_reg_model.svh'.
Parsing included file '/home/cad/eda/SYNOPSYS/VCS/vcs/T-2022.06-SP1/etc/uvm/reg/sequences/uvm_reg_hw_reset_seq.svh'.
Back to file '/home/cad/eda/SYNOPSYS/VCS/vcs/T-2022.06-SP1/etc/uvm/reg/uvm_reg_model.svh'.
Parsing included file '/home/cad/eda/SYNOPSYS/VCS/vcs/T-2022.06-SP1/etc/uvm/reg/sequences/uvm_reg_bit_bash_seq.svh'.
Back to file '/home/cad/eda/SYNOPSYS/VCS/vcs/T-2022.06-SP1/etc/uvm/reg/uvm_reg_model.svh'.
Parsing included file '/home/cad/eda/SYNOPSYS/VCS/vcs/T-2022.06-SP1/etc/uvm/reg/sequences/uvm_mem_walk_seq.svh'.
Back to file '/home/cad/eda/SYNOPSYS/VCS/vcs/T-2022.06-SP1/etc/uvm/reg/uvm_reg_model.svh'.
Parsing included file '/home/cad/eda/SYNOPSYS/VCS/vcs/T-2022.06-SP1/etc/uvm/reg/sequences/uvm_mem_access_seq.svh'.
Back to file '/home/cad/eda/SYNOPSYS/VCS/vcs/T-2022.06-SP1/etc/uvm/reg/uvm_reg_model.svh'.
Parsing included file '/home/cad/eda/SYNOPSYS/VCS/vcs/T-2022.06-SP1/etc/uvm/reg/sequences/uvm_reg_access_seq.svh'.
Back to file '/home/cad/eda/SYNOPSYS/VCS/vcs/T-2022.06-SP1/etc/uvm/reg/uvm_reg_model.svh'.
Parsing included file '/home/cad/eda/SYNOPSYS/VCS/vcs/T-2022.06-SP1/etc/uvm/reg/sequences/uvm_reg_mem_shared_access_seq.svh'.
Back to file '/home/cad/eda/SYNOPSYS/VCS/vcs/T-2022.06-SP1/etc/uvm/reg/uvm_reg_model.svh'.
Parsing included file '/home/cad/eda/SYNOPSYS/VCS/vcs/T-2022.06-SP1/etc/uvm/reg/sequences/uvm_reg_mem_built_in_seq.svh'.
Back to file '/home/cad/eda/SYNOPSYS/VCS/vcs/T-2022.06-SP1/etc/uvm/reg/uvm_reg_model.svh'.
Parsing included file '/home/cad/eda/SYNOPSYS/VCS/vcs/T-2022.06-SP1/etc/uvm/reg/sequences/uvm_reg_mem_hdl_paths_seq.svh'.
Back to file '/home/cad/eda/SYNOPSYS/VCS/vcs/T-2022.06-SP1/etc/uvm/reg/uvm_reg_model.svh'.
Parsing included file '/home/cad/eda/SYNOPSYS/VCS/vcs/T-2022.06-SP1/etc/uvm/reg/snps_uvm_reg_bank.svh'.
Back to file '/home/cad/eda/SYNOPSYS/VCS/vcs/T-2022.06-SP1/etc/uvm/reg/uvm_reg_model.svh'.
Back to file '/home/cad/eda/SYNOPSYS/VCS/vcs/T-2022.06-SP1/etc/uvm/uvm_pkg.sv'.
Parsing included file '/home/cad/eda/SYNOPSYS/VCS/vcs/T-2022.06-SP1/etc/uvm/vcs/vcs_uvm_alt.sv'.
Back to file '/home/cad/eda/SYNOPSYS/VCS/vcs/T-2022.06-SP1/etc/uvm/uvm_pkg.sv'.
Parsing design file '/home/cad/eda/SYNOPSYS/VCS/vcs/T-2022.06-SP1/etc/uvm/vcs/uvm_custom_install_vcs_recorder.sv'
Parsing included file '/home/cad/eda/SYNOPSYS/VCS/vcs/T-2022.06-SP1/etc/uvm/vcs/msglog.svh'.
Back to file '/home/cad/eda/SYNOPSYS/VCS/vcs/T-2022.06-SP1/etc/uvm/vcs/uvm_custom_install_vcs_recorder.sv'.
Parsing included file '/home/cad/eda/SYNOPSYS/VCS/vcs/T-2022.06-SP1/etc/uvm/vcs/uvm_msglog_report_server.sv'.
Back to file '/home/cad/eda/SYNOPSYS/VCS/vcs/T-2022.06-SP1/etc/uvm/vcs/uvm_custom_install_vcs_recorder.sv'.
Parsing included file '/home/cad/eda/SYNOPSYS/VCS/vcs/T-2022.06-SP1/etc/uvm/vcs/uvm_vcs_recorder.svh'.
Back to file '/home/cad/eda/SYNOPSYS/VCS/vcs/T-2022.06-SP1/etc/uvm/vcs/uvm_custom_install_vcs_recorder.sv'.
Parsing included file '/home/cad/eda/SYNOPSYS/VCS/vcs/T-2022.06-SP1/etc/uvm/vcs/uvm_vcs_record_interface.sv'.
Back to file '/home/cad/eda/SYNOPSYS/VCS/vcs/T-2022.06-SP1/etc/uvm/vcs/uvm_custom_install_vcs_recorder.sv'.
Parsing design file '/home/cad/eda/SYNOPSYS/VCS/vcs/T-2022.06-SP1/etc/uvm/verdi/uvm_custom_install_verdi_recorder.sv'
Parsing included file '/home/cad/eda/SYNOPSYS/VCS/vcs/T-2022.06-SP1/etc/uvm/uvm_macros.svh'.
Back to file '/home/cad/eda/SYNOPSYS/VCS/vcs/T-2022.06-SP1/etc/uvm/verdi/uvm_custom_install_verdi_recorder.sv'.
Parsing included file '/home/cad/eda/SYNOPSYS/VCS/vcs/T-2022.06-SP1/etc/uvm/verdi/uvm_verdi_recorder.svh'.
Parsing included file '/home/cad/eda/SYNOPSYS/VCS/vcs/T-2022.06-SP1/etc/uvm/verdi/uvm_verdi_pli_base.svh'.
Back to file '/home/cad/eda/SYNOPSYS/VCS/vcs/T-2022.06-SP1/etc/uvm/verdi/uvm_verdi_recorder.svh'.
Back to file '/home/cad/eda/SYNOPSYS/VCS/vcs/T-2022.06-SP1/etc/uvm/verdi/uvm_custom_install_verdi_recorder.sv'.
Parsing included file '/home/cad/eda/SYNOPSYS/VCS/vcs/T-2022.06-SP1/etc/uvm/verdi/uvm_verdi_reg_map_recording.sv'.
Back to file '/home/cad/eda/SYNOPSYS/VCS/vcs/T-2022.06-SP1/etc/uvm/verdi/uvm_custom_install_verdi_recorder.sv'.
Parsing included file '/home/cad/eda/SYNOPSYS/VCS/vcs/T-2022.06-SP1/etc/uvm/verdi/uvm_verdi_message_catcher.svh'.
Parsing included file '/home/cad/eda/SYNOPSYS/VCS/vcs/T-2022.06-SP1/etc/uvm/verdi/uvm_verdi_pli_base.svh'.
Back to file '/home/cad/eda/SYNOPSYS/VCS/vcs/T-2022.06-SP1/etc/uvm/verdi/uvm_verdi_message_catcher.svh'.
Back to file '/home/cad/eda/SYNOPSYS/VCS/vcs/T-2022.06-SP1/etc/uvm/verdi/uvm_custom_install_verdi_recorder.sv'.
Parsing included file '/home/cad/eda/SYNOPSYS/VCS/vcs/T-2022.06-SP1/etc/uvm/verdi/./dpi/uvm_verdi_dpi.svh'.
Back to file '/home/cad/eda/SYNOPSYS/VCS/vcs/T-2022.06-SP1/etc/uvm/verdi/uvm_custom_install_verdi_recorder.sv'.
Parsing included file '/home/cad/eda/SYNOPSYS/VCS/vcs/T-2022.06-SP1/etc/uvm/verdi/uvm_verdi_reg_recording.sv'.
Back to file '/home/cad/eda/SYNOPSYS/VCS/vcs/T-2022.06-SP1/etc/uvm/verdi/uvm_custom_install_verdi_recorder.sv'.
Parsing included file '/home/cad/eda/SYNOPSYS/VERDI_2022/verdi/T-2022.06-SP1/share/PLI/VCS/include/verdi_trans_recorder_dpi.svh'.
Back to file '/home/cad/eda/SYNOPSYS/VCS/vcs/T-2022.06-SP1/etc/uvm/verdi/uvm_custom_install_verdi_recorder.sv'.
Parsing included file '/home/cad/eda/SYNOPSYS/VCS/vcs/T-2022.06-SP1/etc/uvm/verdi/uvm_verdi_pli.svh'.
Back to file '/home/cad/eda/SYNOPSYS/VCS/vcs/T-2022.06-SP1/etc/uvm/verdi/uvm_custom_install_verdi_recorder.sv'.
Parsing design file '/home/cad/eda/SYNOPSYS/VCS/vcs/T-2022.06-SP1/etc/uvm/verdi/uvm_custom_install_verdi_recorder.sv'
Parsing design file '../Interface/interface.sv'
Parsing included file '/home/cad/eda/SYNOPSYS/VCS/vcs/T-2022.06-SP1/etc/uvm/uvm_macros.svh'.
Back to file '../Interface/interface.sv'.
Parsing design file '../test/test_pkg.sv'
Parsing included file '/home/cad/eda/SYNOPSYS/VCS/vcs/T-2022.06-SP1/etc/uvm/uvm_macros.svh'.
Back to file '../test/test_pkg.sv'.
Parsing included file '../Master_agent/txn.sv'.
Back to file '../test/test_pkg.sv'.
Parsing included file '../Master_agent/master_agent_config.sv'.
Back to file '../test/test_pkg.sv'.
Parsing included file '../Master_agent/master_sequencer.sv'.
Back to file '../test/test_pkg.sv'.
Parsing included file '../Master_agent/master_driver.sv'.
Back to file '../test/test_pkg.sv'.
Parsing included file '../Master_agent/master_monitor.sv'.
Back to file '../test/test_pkg.sv'.
Parsing included file '../Master_agent/master_agent.sv'.
Back to file '../test/test_pkg.sv'.
Parsing included file '../Master_agent/master_agent_top.sv'.
Back to file '../test/test_pkg.sv'.
Parsing included file '../Slave_agent/slave_agent_config.sv'.
Back to file '../test/test_pkg.sv'.
Parsing included file '../Slave_agent/slave_sequencer.sv'.
Back to file '../test/test_pkg.sv'.
Parsing included file '../Slave_agent/slave_driver.sv'.
Back to file '../test/test_pkg.sv'.
Parsing included file '../Slave_agent/slave_monitor.sv'.
Back to file '../test/test_pkg.sv'.
Parsing included file '../Slave_agent/slave_agent.sv'.
Back to file '../test/test_pkg.sv'.
Parsing included file '../Slave_agent/slave_agent_top.sv'.
Back to file '../test/test_pkg.sv'.
Parsing included file '../tb/env_config.sv'.
Back to file '../test/test_pkg.sv'.
Parsing included file '../tb/sb.sv'.
Back to file '../test/test_pkg.sv'.
Parsing included file '../tb/env.sv'.
Back to file '../test/test_pkg.sv'.
Parsing included file '../Master_agent/master_sequence.sv'.
Back to file '../test/test_pkg.sv'.
Parsing included file '../test/test.sv'.
Back to file '../test/test_pkg.sv'.
Parsing design file '../tb/top.sv'
Top Level Modules:
       uvm_custom_install_recording
       uvm_custom_install_verdi_recording
       top
TimeScale is 1 ns / 1 ps
Starting vcs inline pass...

9 modules and 0 UDP read.
recompiling package vcs_paramclassrepository
recompiling package _vcs_DPI_package
recompiling package uvm_pkg
recompiling package _vcs_msglog
recompiling module uvm_custom_install_recording
recompiling module uvm_custom_install_verdi_recording
recompiling module AXI
recompiling package test_pkg
recompiling module top
All of 9 modules done
make[1]: Entering directory '/home1/B123/KDHaneesh/AXI_VIP_copy/sim/csrc'
rm -f _cuarc*.so _csrc*.so pre_vcsobj_*.so share_vcsobj_*.so
g++ -w  -pipe -DVCS -DUVM_DPI_DO_TYPE_CHECK -fPIC -O -I/home/cad/eda/SYNOPSYS/VCS/vcs/T-2022.06-SP1/include \
-c /home/cad/eda/SYNOPSYS/VCS/vcs/T-2022.06-SP1/etc/uvm/dpi/uvm_dpi.cc
g++ -w  -pipe -DVCS -DUVM_DPI_DO_TYPE_CHECK -fPIC -O -I/home/cad/eda/SYNOPSYS/VCS/vcs/T-2022.06-SP1/include \
-c /home/cad/eda/SYNOPSYS/VCS/vcs/T-2022.06-SP1/etc/uvm/verdi/dpi/uvm_verdi_dpi.cpp \

if [ -x ../simv ]; then chmod a-x ../simv; fi
g++  -o ../simv      -rdynamic  -Wl,-rpath='$ORIGIN'/simv.daidir -Wl,-rpath=./simv.daidir \
-Wl,-rpath=/home/cad/eda/SYNOPSYS/VCS/vcs/T-2022.06-SP1/linux64/lib -L/home/cad/eda/SYNOPSYS/VCS/vcs/T-2022.06-SP1/linux64/lib \
-Wl,-rpath-link=./  /usr/lib64/libnuma.so.1 uvm_dpi.o uvm_verdi_dpi.o   objs/amcQw_d.o \
_3507040_archive_1.so  SIM_l.o      rmapats_mop.o rmapats.o rmar.o rmar_nd.o  rmar_llvm_0_1.o \
rmar_llvm_0_0.o            -lvirsim -lerrorinf -lsnpsmalloc -lvfs /home/cad/eda/SYNOPSYS/VERDI_2022/verdi/T-2022.06-SP1/share/PLI/VCS/LINUX64/pli.a \
-lvcsnew -lsimprofile -lreader_common /home/cad/eda/SYNOPSYS/VCS/vcs/T-2022.06-SP1/linux64/lib/libBA.a \
-luclinative /home/cad/eda/SYNOPSYS/VCS/vcs/T-2022.06-SP1/linux64/lib/vcs_tls.o  \
-Wl,-whole-archive  -lvcsucli    -Wl,-no-whole-archive       ./../simv.daidir/vc_hdrs.o \
_vcs_pli_stub_.o   /home/cad/eda/SYNOPSYS/VCS/vcs/T-2022.06-SP1/linux64/lib/vcs_save_restore_new.o \
/home/cad/eda/SYNOPSYS/VERDI_2022/verdi/T-2022.06-SP1/share/PLI/VCS/LINUX64/pli.a \
-ldl -lm  -lc -lpthread -ldl 
../simv up to date
make[1]: Leaving directory '/home1/B123/KDHaneesh/AXI_VIP_copy/sim/csrc'
CPU time: 14.655 seconds to compile + .476 seconds to elab + .997 seconds to link
Verdi KDB elaboration done and the database successfully generated: 0 error(s), 0 warning(s)
Command: /home1/B123/KDHaneesh/AXI_VIP_copy/sim/./simv -a vcs.log +fsdbfile+wave1.fsdb -cm_dir ./mem_cov1 +ntb_random_seed_automatic +UVM_TESTNAME=base_test +UVM_VERBOSITY=UVM_LOW
Chronologic VCS simulator copyright 1991-2022
Contains Synopsys proprietary information.
Compiler version T-2022.06-SP1_Full64; Runtime version T-2022.06-SP1_Full64;  May 16 20:20 2026
NOTE: automatic random seed used: 2537973795
----------------------------------------------------------------
UVM-1.1d.Synopsys
(C) 2007-2013 Mentor Graphics Corporation
(C) 2007-2013 Cadence Design Systems, Inc.
(C) 2006-2013 Synopsys, Inc.
(C) 2011-2013 Cypress Semiconductor Corp.
----------------------------------------------------------------

  ***********       IMPORTANT RELEASE NOTES         ************

  You are using a version of the UVM library that has been compiled
  with `UVM_NO_DEPRECATED undefined.
  See http://www.eda.org/svdb/view.php?id=3313 for more details.

  You are using a version of the UVM library that has been compiled
  with `UVM_OBJECT_MUST_HAVE_CONSTRUCTOR undefined.
  See http://www.eda.org/svdb/view.php?id=3770 for more details.

      (Specify +UVM_NO_RELNOTES to turn off this notice)

*Verdi* Loading libsscore_vcs202206.so
FSDB Dumper for VCS, Release Verdi_T-2022.06-SP1, Linux x86_64/64bit, 08/28/2022
(C) 1996 - 2022 by Synopsys, Inc.
*Verdi* : Create FSDB file 'wave1.fsdb'
*Verdi* : Begin traversing the scope (top), layer (0).
*Verdi* : End of traversing.
UVM_INFO @ 0: reporter [RNTST] Running test base_test...
UVM_INFO @ 0: reporter [UVMTOP] UVM testbench topology:
--------------------------------------------------------------------
Name                         Type                        Size  Value
--------------------------------------------------------------------
uvm_test_top                 base_test                   -     @464 
  env                        env                         -     @473 
    m_agt_top                master_agent_top            -     @601 
      m_agt[0]               master_agent                -     @628 
        m_drvh               master_driver               -     @771 
          rsp_port           uvm_analysis_port           -     @788 
          seq_item_port      uvm_seq_item_pull_port      -     @779 
        m_monh               master_monitor              -     @797 
          m_ap               uvm_analysis_port           -     @805 
        m_seqrh              master_sequencer            -     @648 
          rsp_export         uvm_analysis_export         -     @656 
          seq_item_export    uvm_seq_item_pull_imp       -     @762 
          arbitration_queue  array                       0     -    
          lock_queue         array                       0     -    
          num_last_reqs      integral                    32    'd1  
          num_last_rsps      integral                    32    'd1  
    s_agt_top                slave_agent_top             -     @609 
      s_agt[0]               slave_agent                 -     @822 
        s_drvh               slave_driver                -     @963 
          rsp_port           uvm_analysis_port           -     @980 
          seq_item_port      uvm_seq_item_pull_port      -     @971 
        s_monh               slave_monitor               -     @989 
          s_ap               uvm_analysis_port           -     @997 
        s_seqrh              slave_sequencer             -     @840 
          rsp_export         uvm_analysis_export         -     @848 
          seq_item_export    uvm_seq_item_pull_imp       -     @954 
          arbitration_queue  array                       0     -    
          lock_queue         array                       0     -    
          num_last_reqs      integral                    32    'd1  
          num_last_rsps      integral                    32    'd1  
    sb[0]                    scoreboard                  -     @487 
      m_fifo                 uvm_tlm_analysis_fifo #(T)  -     @495 
        analysis_export      uvm_analysis_imp            -     @539 
        get_ap               uvm_analysis_port           -     @530 
        get_peek_export      uvm_get_peek_imp            -     @512 
        put_ap               uvm_analysis_port           -     @521 
        put_export           uvm_put_imp                 -     @503 
      s_fifo                 uvm_tlm_analysis_fifo #(T)  -     @548 
        analysis_export      uvm_analysis_imp            -     @592 
        get_ap               uvm_analysis_port           -     @583 
        get_peek_export      uvm_get_peek_imp            -     @565 
        put_ap               uvm_analysis_port           -     @574 
        put_export           uvm_put_imp                 -     @556 
--------------------------------------------------------------------


--- UVM Report Summary ---

** Report counts by severity
UVM_INFO :    2
UVM_WARNING :    0
UVM_ERROR :    0
UVM_FATAL :    0
** Report counts by id
[RNTST]     1
[UVMTOP]     1
$finish called from file "/home/cad/eda/SYNOPSYS/VCS/vcs/T-2022.06-SP1/etc/uvm/base/uvm_root.svh", line 437.
$finish at simulation time                    0
"../Interface/interface.sv", 173: top.intrf.prp6, 0 attempts, 0 match
"../Interface/interface.sv", 174: top.intrf.prp7, 0 attempts, 0 match
"../Interface/interface.sv", 175: top.intrf.prp8, 0 attempts, 0 match
"../Interface/interface.sv", 176: top.intrf.prp9, 0 attempts, 0 match
"../Interface/interface.sv", 177: top.intrf.prp10, 0 attempts, 0 match
"../Interface/interface.sv", 178: top.intrf.prp11, 0 attempts, 0 match
"../Interface/interface.sv", 179: top.intrf.prp12, 0 attempts, 0 match
"../Interface/interface.sv", 180: top.intrf.prp13, 0 attempts, 0 match
           V C S   S i m u l a t i o n   R e p o r t 
Time: 0 ps
CPU Time:      0.450 seconds;       Data structure size:   0.6Mb
Sat May 16 20:20:43 2026
Command: /home1/B123/KDHaneesh/AXI_VIP_copy/sim/./simv -a vcs.log +fsdbfile+wave2.fsdb -cm_dir ./mem_cov2 +ntb_random_seed_automatic +UVM_TESTNAME=fixed_test +UVM_VERBOSITY=UVM_LOW
Chronologic VCS simulator copyright 1991-2022
Contains Synopsys proprietary information.
Compiler version T-2022.06-SP1_Full64; Runtime version T-2022.06-SP1_Full64;  May 16 20:20 2026
NOTE: automatic random seed used: 4068357961
----------------------------------------------------------------
UVM-1.1d.Synopsys
(C) 2007-2013 Mentor Graphics Corporation
(C) 2007-2013 Cadence Design Systems, Inc.
(C) 2006-2013 Synopsys, Inc.
(C) 2011-2013 Cypress Semiconductor Corp.
----------------------------------------------------------------

  ***********       IMPORTANT RELEASE NOTES         ************

  You are using a version of the UVM library that has been compiled
  with `UVM_NO_DEPRECATED undefined.
  See http://www.eda.org/svdb/view.php?id=3313 for more details.

  You are using a version of the UVM library that has been compiled
  with `UVM_OBJECT_MUST_HAVE_CONSTRUCTOR undefined.
  See http://www.eda.org/svdb/view.php?id=3770 for more details.

      (Specify +UVM_NO_RELNOTES to turn off this notice)

*Verdi* Loading libsscore_vcs202206.so
FSDB Dumper for VCS, Release Verdi_T-2022.06-SP1, Linux x86_64/64bit, 08/28/2022
(C) 1996 - 2022 by Synopsys, Inc.
*Verdi* : Create FSDB file 'wave2.fsdb'
*Verdi* : Begin traversing the scope (top), layer (0).
*Verdi* : End of traversing.
UVM_INFO @ 0: reporter [RNTST] Running test fixed_test...
UVM_INFO @ 0: reporter [UVMTOP] UVM testbench topology:
--------------------------------------------------------------------
Name                         Type                        Size  Value
--------------------------------------------------------------------
uvm_test_top                 fixed_test                  -     @464 
  env                        env                         -     @473 
    m_agt_top                master_agent_top            -     @601 
      m_agt[0]               master_agent                -     @628 
        m_drvh               master_driver               -     @771 
          rsp_port           uvm_analysis_port           -     @788 
          seq_item_port      uvm_seq_item_pull_port      -     @779 
        m_monh               master_monitor              -     @797 
          m_ap               uvm_analysis_port           -     @805 
        m_seqrh              master_sequencer            -     @648 
          rsp_export         uvm_analysis_export         -     @656 
          seq_item_export    uvm_seq_item_pull_imp       -     @762 
          arbitration_queue  array                       0     -    
          lock_queue         array                       0     -    
          num_last_reqs      integral                    32    'd1  
          num_last_rsps      integral                    32    'd1  
    s_agt_top                slave_agent_top             -     @609 
      s_agt[0]               slave_agent                 -     @822 
        s_drvh               slave_driver                -     @963 
          rsp_port           uvm_analysis_port           -     @980 
          seq_item_port      uvm_seq_item_pull_port      -     @971 
        s_monh               slave_monitor               -     @989 
          s_ap               uvm_analysis_port           -     @997 
        s_seqrh              slave_sequencer             -     @840 
          rsp_export         uvm_analysis_export         -     @848 
          seq_item_export    uvm_seq_item_pull_imp       -     @954 
          arbitration_queue  array                       0     -    
          lock_queue         array                       0     -    
          num_last_reqs      integral                    32    'd1  
          num_last_rsps      integral                    32    'd1  
    sb[0]                    scoreboard                  -     @487 
      m_fifo                 uvm_tlm_analysis_fifo #(T)  -     @495 
        analysis_export      uvm_analysis_imp            -     @539 
        get_ap               uvm_analysis_port           -     @530 
        get_peek_export      uvm_get_peek_imp            -     @512 
        put_ap               uvm_analysis_port           -     @521 
        put_export           uvm_put_imp                 -     @503 
      s_fifo                 uvm_tlm_analysis_fifo #(T)  -     @548 
        analysis_export      uvm_analysis_imp            -     @592 
        get_ap               uvm_analysis_port           -     @583 
        get_peek_export      uvm_get_peek_imp            -     @565 
        put_ap               uvm_analysis_port           -     @574 
        put_export           uvm_put_imp                 -     @556 
--------------------------------------------------------------------

UVM_INFO ../Master_agent/master_driver.sv(112) @ 0: uvm_test_top.env.m_agt_top.m_agt[0].m_drvh [master_driver] 

Write Address and Control signals driven are 
 AWID : 15 
 Address : 2232 
 AWLEN : 3 
 AWSIZE : 2 
 AWBURST : 0
UVM_INFO ../Master_agent/master_driver.sv(179) @ 0: uvm_test_top.env.m_agt_top.m_agt[0].m_drvh [master_driver] 

Read Address and Control signal driven are
 ARID : 10 
 ARADDRESS : 2068 
 ARLEN : 3 
 ARSIZE : 1 
 ARBURST : 0
UVM_INFO ../tb/sb.sv(98) @ 15000: uvm_test_top.env.sb[0] [scoreboard] Data Matched
UVM_INFO ../tb/sb.sv(98) @ 15000: uvm_test_top.env.sb[0] [scoreboard] Data Matched
UVM_INFO ../Master_agent/master_driver.sv(179) @ 25000: uvm_test_top.env.m_agt_top.m_agt[0].m_drvh [master_driver] 

Read Address and Control signal driven are
 ARID : 10 
 ARADDRESS : 1976 
 ARLEN : 3 
 ARSIZE : 2 
 ARBURST : 0
UVM_INFO ../Interface/interface.sv(148) @ 25000: reporter [Property Write Address Handshake] 
Awready went low after handshake
UVM_INFO ../Interface/interface.sv(163) @ 25000: reporter [Property Read Address Handshake] 
Arready went low after handshake
UVM_INFO ../Master_agent/master_driver.sv(112) @ 35000: uvm_test_top.env.m_agt_top.m_agt[0].m_drvh [master_driver] 

Write Address and Control signals driven are 
 AWID : 1 
 Address : 574 
 AWLEN : 3 
 AWSIZE : 0 
 AWBURST : 0
UVM_INFO ../tb/sb.sv(98) @ 45000: uvm_test_top.env.sb[0] [scoreboard] Data Matched
UVM_INFO ../tb/sb.sv(98) @ 45000: uvm_test_top.env.sb[0] [scoreboard] Data Matched
UVM_INFO ../Master_agent/master_driver.sv(133) @ 45000: uvm_test_top.env.m_agt_top.m_agt[0].m_drvh [master_driver] 
WDATA[0] : e5bfbd31 | WSTRB[0] : f
UVM_INFO ../Interface/interface.sv(148) @ 55000: reporter [Property Write Address Handshake] 
Awready went low after handshake
UVM_INFO ../Interface/interface.sv(163) @ 55000: reporter [Property Read Address Handshake] 
Arready went low after handshake
UVM_INFO ../Master_agent/master_driver.sv(133) @ 65000: uvm_test_top.env.m_agt_top.m_agt[0].m_drvh [master_driver] 
WDATA[1] : d6d3b831 | WSTRB[1] : f
UVM_INFO ../Slave_agent/slave_driver.sv(172) @ 65000: uvm_test_top.env.s_agt_top.s_agt[0].s_drvh [slave_driver] 
Got RREADY
UVM_INFO ../Master_agent/master_driver.sv(112) @ 65000: uvm_test_top.env.m_agt_top.m_agt[0].m_drvh [master_driver] 

Write Address and Control signals driven are 
 AWID : 11 
 Address : 2678 
 AWLEN : 3 
 AWSIZE : 0 
 AWBURST : 0
UVM_INFO ../Interface/interface.sv(153) @ 65000: reporter [Property Write Data Handshake] 
wready went low after handshake
UVM_INFO ../tb/sb.sv(98) @ 75000: uvm_test_top.env.sb[0] [scoreboard] Data Matched
UVM_INFO ../Interface/interface.sv(168) @ 75000: reporter [Property Read Data Handshake] 
rready went low after handshake
UVM_INFO ../Master_agent/master_driver.sv(179) @ 85000: uvm_test_top.env.m_agt_top.m_agt[0].m_drvh [master_driver] 

Read Address and Control signal driven are
 ARID : 12 
 ARADDRESS : 2608 
 ARLEN : 3 
 ARSIZE : 1 
 ARBURST : 0
UVM_INFO ../Interface/interface.sv(148) @ 85000: reporter [Property Write Address Handshake] 
Awready went low after handshake
UVM_INFO ../Interface/interface.sv(153) @ 85000: reporter [Property Write Data Handshake] 
wready went low after handshake
UVM_INFO ../tb/sb.sv(98) @ 95000: uvm_test_top.env.sb[0] [scoreboard] Data Matched
UVM_INFO ../Master_agent/master_driver.sv(133) @ 95000: uvm_test_top.env.m_agt_top.m_agt[0].m_drvh [master_driver] 
WDATA[2] : 377fab08 | WSTRB[2] : f
UVM_INFO ../Slave_agent/slave_driver.sv(172) @ 105000: uvm_test_top.env.s_agt_top.s_agt[0].s_drvh [slave_driver] 
Got RREADY
UVM_INFO ../Interface/interface.sv(163) @ 105000: reporter [Property Read Address Handshake] 
Arready went low after handshake
UVM_INFO ../Master_agent/master_driver.sv(112) @ 115000: uvm_test_top.env.m_agt_top.m_agt[0].m_drvh [master_driver] 

Write Address and Control signals driven are 
 AWID : 12 
 Address : 2926 
 AWLEN : 3 
 AWSIZE : 1 
 AWBURST : 0
UVM_INFO ../Interface/interface.sv(153) @ 115000: reporter [Property Write Data Handshake] 
wready went low after handshake
UVM_INFO ../Interface/interface.sv(168) @ 115000: reporter [Property Read Data Handshake] 
rready went low after handshake
UVM_INFO ../tb/sb.sv(98) @ 125000: uvm_test_top.env.sb[0] [scoreboard] Data Matched
UVM_INFO ../Master_agent/master_driver.sv(133) @ 125000: uvm_test_top.env.m_agt_top.m_agt[0].m_drvh [master_driver] 
WDATA[3] : aadc0d7d | WSTRB[3] : f
UVM_INFO ../Slave_agent/slave_driver.sv(172) @ 135000: uvm_test_top.env.s_agt_top.s_agt[0].s_drvh [slave_driver] 
Got RREADY
UVM_INFO ../Master_agent/master_driver.sv(179) @ 135000: uvm_test_top.env.m_agt_top.m_agt[0].m_drvh [master_driver] 

Read Address and Control signal driven are
 ARID : 3 
 ARADDRESS : 196 
 ARLEN : 3 
 ARSIZE : 0 
 ARBURST : 0
UVM_INFO ../tb/sb.sv(98) @ 135000: uvm_test_top.env.sb[0] [scoreboard] Data Matched
UVM_INFO ../Interface/interface.sv(148) @ 135000: reporter [Property Write Address Handshake] 
Awready went low after handshake
UVM_INFO ../tb/sb.sv(98) @ 145000: uvm_test_top.env.sb[0] [scoreboard] Data Matched
UVM_INFO ../Interface/interface.sv(153) @ 145000: reporter [Property Write Data Handshake] 
wready went low after handshake
UVM_INFO ../Interface/interface.sv(168) @ 145000: reporter [Property Read Data Handshake] 
rready went low after handshake
UVM_INFO ../Master_agent/master_driver.sv(112) @ 155000: uvm_test_top.env.m_agt_top.m_agt[0].m_drvh [master_driver] 

Write Address and Control signals driven are 
 AWID : 4 
 Address : 696 
 AWLEN : 3 
 AWSIZE : 2 
 AWBURST : 0
UVM_INFO ../Interface/interface.sv(163) @ 155000: reporter [Property Read Address Handshake] 
Arready went low after handshake
UVM_INFO ../tb/sb.sv(98) @ 165000: uvm_test_top.env.sb[0] [scoreboard] Data Matched
UVM_INFO ../Slave_agent/slave_driver.sv(165) @ 165000: uvm_test_top.env.s_agt_top.s_agt[0].s_drvh [slave_driver] 

Asserting RLAST
UVM_INFO ../Master_agent/master_monitor.sv(140) @ 175000: uvm_test_top.env.m_agt_top.m_agt[0].m_monh [master_monitor] The Write Transaction Data 
--------------------------------------
Name        Type      Size  Value     
--------------------------------------
wtx         txn       -     @1026     
  AWID      integral  4     15        
  AWADDR    integral  32    'd2232    
  AWLEN     integral  4     'd3       
  AWSIZE    integral  3     'd2       
  AWBURST   integral  2     'd0       
  WID       integral  4     15        
  WDATA[0]  integral  32    'he5bfbd31
  WSTRB[0]  integral  4     'b1111    
  WDATA[1]  integral  32    'hd6d3b831
  WSTRB[1]  integral  4     'b1111    
  WDATA[2]  integral  32    'h377fab08
  WSTRB[2]  integral  4     'b1111    
  WDATA[3]  integral  32    'haadc0d7d
  WSTRB[3]  integral  4     'b1111    
  BID       integral  4     15        
  BRESP     integral  2     'd0       
  ARID      integral  4     'd0       
  ARADDR    integral  32    'd0       
  ARLEN     integral  4     'd0       
  ARSIZE    integral  3     'd0       
  ARBURST   integral  2     'd0       
  RID       integral  4     'd0       
--------------------------------------

UVM_INFO ../Slave_agent/slave_monitor.sv(138) @ 175000: uvm_test_top.env.s_agt_top.s_agt[0].s_monh [slave_monitor] The Write Transaction Data 
--------------------------------------
Name        Type      Size  Value     
--------------------------------------
wtx         txn       -     @1042     
  AWID      integral  4     15        
  AWADDR    integral  32    'd2232    
  AWLEN     integral  4     'd3       
  AWSIZE    integral  3     'd2       
  AWBURST   integral  2     'd0       
  WID       integral  4     15        
  WDATA[0]  integral  32    'he5bfbd31
  WSTRB[0]  integral  4     'b1111    
  WDATA[1]  integral  32    'hd6d3b831
  WSTRB[1]  integral  4     'b1111    
  WDATA[2]  integral  32    'h377fab08
  WSTRB[2]  integral  4     'b1111    
  WDATA[3]  integral  32    'haadc0d7d
  WSTRB[3]  integral  4     'b1111    
  BID       integral  4     15        
  BRESP     integral  2     'd0       
  ARID      integral  4     'd0       
  ARADDR    integral  32    'd0       
  ARLEN     integral  4     'd0       
  ARSIZE    integral  3     'd0       
  ARBURST   integral  2     'd0       
  RID       integral  4     'd0       
--------------------------------------

UVM_INFO ../tb/sb.sv(98) @ 175000: uvm_test_top.env.sb[0] [scoreboard] Data Matched
UVM_INFO ../Slave_agent/slave_driver.sv(172) @ 175000: uvm_test_top.env.s_agt_top.s_agt[0].s_drvh [slave_driver] 
Got RREADY
UVM_INFO ../Master_agent/master_monitor.sv(175) @ 175000: uvm_test_top.env.m_agt_top.m_agt[0].m_monh [master_monitor] The Read Transaction Data 
--------------------------------------
Name        Type      Size  Value     
--------------------------------------
rtx         txn       -     @1030     
  AWID      integral  4     'd0       
  AWADDR    integral  32    'd0       
  AWLEN     integral  4     'd0       
  AWSIZE    integral  3     'd0       
  AWBURST   integral  2     'd0       
  WID       integral  4     'd0       
  BID       integral  4     'd0       
  BRESP     integral  2     'd0       
  ARID      integral  4     10        
  ARADDR    integral  32    'd2068    
  ARLEN     integral  4     'd3       
  ARSIZE    integral  3     'd1       
  ARBURST   integral  2     'd0       
  RID       integral  4     10        
  RDATA[0]  integral  32    'heedd1bd1
  RRESP[0]  integral  2     'd0       
  RDATA[1]  integral  32    'h82f76258
  RRESP[1]  integral  2     'd0       
  RDATA[2]  integral  32    'h38634da9
  RRESP[2]  integral  2     'd0       
  RDATA[3]  integral  32    'hd040656e
  RRESP[3]  integral  2     'd0       
--------------------------------------

UVM_INFO ../Slave_agent/slave_monitor.sv(171) @ 175000: uvm_test_top.env.s_agt_top.s_agt[0].s_monh [slave_monitor] The Read Transaction Data 
--------------------------------------
Name        Type      Size  Value     
--------------------------------------
rtx         txn       -     @1046     
  AWID      integral  4     'd0       
  AWADDR    integral  32    'd0       
  AWLEN     integral  4     'd0       
  AWSIZE    integral  3     'd0       
  AWBURST   integral  2     'd0       
  WID       integral  4     'd0       
  BID       integral  4     'd0       
  BRESP     integral  2     'd0       
  ARID      integral  4     10        
  ARADDR    integral  32    'd2068    
  ARLEN     integral  4     'd3       
  ARSIZE    integral  3     'd1       
  ARBURST   integral  2     'd0       
  RID       integral  4     10        
  RDATA[0]  integral  32    'heedd1bd1
  RRESP[0]  integral  2     'd0       
  RDATA[1]  integral  32    'h82f76258
  RRESP[1]  integral  2     'd0       
  RDATA[2]  integral  32    'h38634da9
  RRESP[2]  integral  2     'd0       
  RDATA[3]  integral  32    'hd040656e
  RRESP[3]  integral  2     'd0       
--------------------------------------

UVM_INFO ../Master_agent/master_driver.sv(179) @ 175000: uvm_test_top.env.m_agt_top.m_agt[0].m_drvh [master_driver] 

Read Address and Control signal driven are
 ARID : 8 
 ARADDRESS : 2468 
 ARLEN : 3 
 ARSIZE : 0 
 ARBURST : 0
UVM_INFO ../tb/sb.sv(98) @ 175000: uvm_test_top.env.sb[0] [scoreboard] Data Matched
UVM_INFO ../Interface/interface.sv(148) @ 175000: reporter [Property Write Address Handshake] 
Awready went low after handshake
UVM_INFO ../Master_agent/master_driver.sv(133) @ 185000: uvm_test_top.env.m_agt_top.m_agt[0].m_drvh [master_driver] 
WDATA[0] : db2871f7 | WSTRB[0] : 4
UVM_INFO ../Interface/interface.sv(158) @ 185000: reporter [Property Write response Handshake] 
bready went low after handshake
UVM_INFO ../Interface/interface.sv(168) @ 185000: reporter [Property Read Data Handshake] 
rready went low after handshake
UVM_INFO ../tb/sb.sv(98) @ 195000: uvm_test_top.env.sb[0] [scoreboard] Data Matched
UVM_INFO ../Master_agent/master_driver.sv(112) @ 205000: uvm_test_top.env.m_agt_top.m_agt[0].m_drvh [master_driver] 

Write Address and Control signals driven are 
 AWID : 15 
 Address : 1068 
 AWLEN : 3 
 AWSIZE : 1 
 AWBURST : 0
UVM_INFO ../Master_agent/master_driver.sv(179) @ 205000: uvm_test_top.env.m_agt_top.m_agt[0].m_drvh [master_driver] 

Read Address and Control signal driven are
 ARID : 4 
 ARADDRESS : 2016 
 ARLEN : 3 
 ARSIZE : 1 
 ARBURST : 0
UVM_INFO ../Interface/interface.sv(153) @ 205000: reporter [Property Write Data Handshake] 
wready went low after handshake
UVM_INFO ../Interface/interface.sv(163) @ 205000: reporter [Property Read Address Handshake] 
Arready went low after handshake
UVM_INFO ../tb/sb.sv(98) @ 215000: uvm_test_top.env.sb[0] [scoreboard] Data Matched
UVM_INFO ../Master_agent/master_driver.sv(133) @ 215000: uvm_test_top.env.m_agt_top.m_agt[0].m_drvh [master_driver] 
WDATA[1] : b322c3a7 | WSTRB[1] : 4
UVM_INFO ../Interface/interface.sv(148) @ 225000: reporter [Property Write Address Handshake] 
Awready went low after handshake
UVM_INFO ../tb/sb.sv(98) @ 235000: uvm_test_top.env.sb[0] [scoreboard] Data Matched
UVM_INFO ../Slave_agent/slave_driver.sv(172) @ 235000: uvm_test_top.env.s_agt_top.s_agt[0].s_drvh [slave_driver] 
Got RREADY
UVM_INFO ../Interface/interface.sv(153) @ 235000: reporter [Property Write Data Handshake] 
wready went low after handshake
UVM_INFO ../Master_agent/master_driver.sv(133) @ 245000: uvm_test_top.env.m_agt_top.m_agt[0].m_drvh [master_driver] 
WDATA[2] : 66d22efd | WSTRB[2] : 4
UVM_INFO ../Master_agent/master_driver.sv(112) @ 245000: uvm_test_top.env.m_agt_top.m_agt[0].m_drvh [master_driver] 

Write Address and Control signals driven are 
 AWID : 2 
 Address : 2350 
 AWLEN : 3 
 AWSIZE : 1 
 AWBURST : 0
UVM_INFO ../Master_agent/master_driver.sv(179) @ 245000: uvm_test_top.env.m_agt_top.m_agt[0].m_drvh [master_driver] 

Read Address and Control signal driven are
 ARID : 6 
 ARADDRESS : 943 
 ARLEN : 3 
 ARSIZE : 2 
 ARBURST : 0
UVM_INFO ../Interface/interface.sv(163) @ 245000: reporter [Property Read Address Handshake] 
Arready went low after handshake
UVM_INFO ../Interface/interface.sv(168) @ 245000: reporter [Property Read Data Handshake] 
rready went low after handshake
UVM_INFO ../tb/sb.sv(98) @ 255000: uvm_test_top.env.sb[0] [scoreboard] Data Matched
UVM_INFO ../Master_agent/master_driver.sv(133) @ 265000: uvm_test_top.env.m_agt_top.m_agt[0].m_drvh [master_driver] 
WDATA[3] : 9a2de01 | WSTRB[3] : 4
UVM_INFO ../Interface/interface.sv(148) @ 265000: reporter [Property Write Address Handshake] 
Awready went low after handshake
UVM_INFO ../Interface/interface.sv(153) @ 265000: reporter [Property Write Data Handshake] 
wready went low after handshake
UVM_INFO ../Slave_agent/slave_driver.sv(172) @ 275000: uvm_test_top.env.s_agt_top.s_agt[0].s_drvh [slave_driver] 
Got RREADY
UVM_INFO ../tb/sb.sv(98) @ 275000: uvm_test_top.env.sb[0] [scoreboard] Data Matched
UVM_INFO ../tb/sb.sv(98) @ 275000: uvm_test_top.env.sb[0] [scoreboard] Data Matched
UVM_INFO ../Interface/interface.sv(153) @ 285000: reporter [Property Write Data Handshake] 
wready went low after handshake
UVM_INFO ../Interface/interface.sv(163) @ 285000: reporter [Property Read Address Handshake] 
Arready went low after handshake
UVM_INFO ../Interface/interface.sv(168) @ 285000: reporter [Property Read Data Handshake] 
rready went low after handshake
UVM_INFO ../Master_agent/master_monitor.sv(140) @ 305000: uvm_test_top.env.m_agt_top.m_agt[0].m_monh [master_monitor] The Write Transaction Data 
------------------------------------
Name        Type      Size  Value   
------------------------------------
wtx         txn       -     @1102   
  AWID      integral  4     'd1     
  AWADDR    integral  32    'd574   
  AWLEN     integral  4     'd3     
  AWSIZE    integral  3     'd0     
  AWBURST   integral  2     'd0     
  WID       integral  4     'd1     
  WDATA[0]  integral  32    'h280000
  WSTRB[0]  integral  4     'b100   
  WDATA[1]  integral  32    'h220000
  WSTRB[1]  integral  4     'b100   
  WDATA[2]  integral  32    'hd20000
  WSTRB[2]  integral  4     'b100   
  WDATA[3]  integral  32    'ha20000
  WSTRB[3]  integral  4     'b100   
  BID       integral  4     'd1     
  BRESP     integral  2     'd0     
  ARID      integral  4     'd0     
  ARADDR    integral  32    'd0     
  ARLEN     integral  4     'd0     
  ARSIZE    integral  3     'd0     
  ARBURST   integral  2     'd0     
  RID       integral  4     'd0     
------------------------------------

UVM_INFO ../Slave_agent/slave_monitor.sv(138) @ 305000: uvm_test_top.env.s_agt_top.s_agt[0].s_monh [slave_monitor] The Write Transaction Data 
------------------------------------
Name        Type      Size  Value   
------------------------------------
wtx         txn       -     @1110   
  AWID      integral  4     'd1     
  AWADDR    integral  32    'd574   
  AWLEN     integral  4     'd3     
  AWSIZE    integral  3     'd0     
  AWBURST   integral  2     'd0     
  WID       integral  4     'd1     
  WDATA[0]  integral  32    'h280000
  WSTRB[0]  integral  4     'b100   
  WDATA[1]  integral  32    'h220000
  WSTRB[1]  integral  4     'b100   
  WDATA[2]  integral  32    'hd20000
  WSTRB[2]  integral  4     'b100   
  WDATA[3]  integral  32    'ha20000
  WSTRB[3]  integral  4     'b100   
  BID       integral  4     'd1     
  BRESP     integral  2     'd0     
  ARID      integral  4     'd0     
  ARADDR    integral  32    'd0     
  ARLEN     integral  4     'd0     
  ARSIZE    integral  3     'd0     
  ARBURST   integral  2     'd0     
  RID       integral  4     'd0     
------------------------------------

UVM_INFO ../tb/sb.sv(98) @ 305000: uvm_test_top.env.sb[0] [scoreboard] Data Matched
UVM_INFO ../Master_agent/master_driver.sv(133) @ 305000: uvm_test_top.env.m_agt_top.m_agt[0].m_drvh [master_driver] 
WDATA[0] : 1227446b | WSTRB[0] : 4
UVM_INFO ../Master_agent/master_driver.sv(112) @ 305000: uvm_test_top.env.m_agt_top.m_agt[0].m_drvh [master_driver] 

Write Address and Control signals driven are 
 AWID : 5 
 Address : 2932 
 AWLEN : 3 
 AWSIZE : 1 
 AWBURST : 0
UVM_INFO ../Master_agent/master_driver.sv(179) @ 305000: uvm_test_top.env.m_agt_top.m_agt[0].m_drvh [master_driver] 

Read Address and Control signal driven are
 ARID : 14 
 ARADDRESS : 2066 
 ARLEN : 3 
 ARSIZE : 2 
 ARBURST : 0
UVM_INFO ../tb/sb.sv(98) @ 315000: uvm_test_top.env.sb[0] [scoreboard] Data Matched
UVM_INFO ../Interface/interface.sv(158) @ 315000: reporter [Property Write response Handshake] 
bready went low after handshake
UVM_INFO ../Slave_agent/slave_driver.sv(172) @ 325000: uvm_test_top.env.s_agt_top.s_agt[0].s_drvh [slave_driver] 
Got RREADY
UVM_INFO ../tb/sb.sv(98) @ 325000: uvm_test_top.env.sb[0] [scoreboard] Data Matched
UVM_INFO ../Interface/interface.sv(148) @ 325000: reporter [Property Write Address Handshake] 
Awready went low after handshake
UVM_INFO ../Interface/interface.sv(153) @ 325000: reporter [Property Write Data Handshake] 
wready went low after handshake
UVM_INFO ../Master_agent/master_driver.sv(133) @ 335000: uvm_test_top.env.m_agt_top.m_agt[0].m_drvh [master_driver] 
WDATA[1] : 73829026 | WSTRB[1] : 4
UVM_INFO ../Master_agent/master_driver.sv(179) @ 335000: uvm_test_top.env.m_agt_top.m_agt[0].m_drvh [master_driver] 

Read Address and Control signal driven are
 ARID : 13 
 ARADDRESS : 2393 
 ARLEN : 3 
 ARSIZE : 0 
 ARBURST : 0
UVM_INFO ../Interface/interface.sv(163) @ 335000: reporter [Property Read Address Handshake] 
Arready went low after handshake
UVM_INFO ../Interface/interface.sv(168) @ 335000: reporter [Property Read Data Handshake] 
rready went low after handshake
UVM_INFO ../Slave_agent/slave_driver.sv(165) @ 345000: uvm_test_top.env.s_agt_top.s_agt[0].s_drvh [slave_driver] 

Asserting RLAST
UVM_INFO ../tb/sb.sv(98) @ 355000: uvm_test_top.env.sb[0] [scoreboard] Data Matched
UVM_INFO ../Master_agent/master_driver.sv(112) @ 355000: uvm_test_top.env.m_agt_top.m_agt[0].m_drvh [master_driver] 

Write Address and Control signals driven are 
 AWID : 4 
 Address : 844 
 AWLEN : 3 
 AWSIZE : 2 
 AWBURST : 0
UVM_INFO ../Interface/interface.sv(153) @ 355000: reporter [Property Write Data Handshake] 
wready went low after handshake
UVM_INFO ../Slave_agent/slave_driver.sv(172) @ 365000: uvm_test_top.env.s_agt_top.s_agt[0].s_drvh [slave_driver] 
Got RREADY
UVM_INFO ../tb/sb.sv(98) @ 365000: uvm_test_top.env.sb[0] [scoreboard] Data Matched
UVM_INFO ../Master_agent/master_driver.sv(133) @ 365000: uvm_test_top.env.m_agt_top.m_agt[0].m_drvh [master_driver] 
WDATA[2] : 146c1c44 | WSTRB[2] : 4
UVM_INFO ../Master_agent/master_monitor.sv(175) @ 365000: uvm_test_top.env.m_agt_top.m_agt[0].m_monh [master_monitor] The Read Transaction Data 
--------------------------------------
Name        Type      Size  Value     
--------------------------------------
rtx         txn       -     @1106     
  AWID      integral  4     'd0       
  AWADDR    integral  32    'd0       
  AWLEN     integral  4     'd0       
  AWSIZE    integral  3     'd0       
  AWBURST   integral  2     'd0       
  WID       integral  4     'd0       
  BID       integral  4     'd0       
  BRESP     integral  2     'd0       
  ARID      integral  4     10        
  ARADDR    integral  32    'd1976    
  ARLEN     integral  4     'd3       
  ARSIZE    integral  3     'd2       
  ARBURST   integral  2     'd0       
  RID       integral  4     10        
  RDATA[0]  integral  32    'h6b4b7d1f
  RRESP[0]  integral  2     'd0       
  RDATA[1]  integral  32    'h5393c28a
  RRESP[1]  integral  2     'd0       
  RDATA[2]  integral  32    'hb0c06b92
  RRESP[2]  integral  2     'd0       
  RDATA[3]  integral  32    'h4541acca
  RRESP[3]  integral  2     'd0       
--------------------------------------

UVM_INFO ../Slave_agent/slave_monitor.sv(171) @ 365000: uvm_test_top.env.s_agt_top.s_agt[0].s_monh [slave_monitor] The Read Transaction Data 
--------------------------------------
Name        Type      Size  Value     
--------------------------------------
rtx         txn       -     @1114     
  AWID      integral  4     'd0       
  AWADDR    integral  32    'd0       
  AWLEN     integral  4     'd0       
  AWSIZE    integral  3     'd0       
  AWBURST   integral  2     'd0       
  WID       integral  4     'd0       
  BID       integral  4     'd0       
  BRESP     integral  2     'd0       
  ARID      integral  4     10        
  ARADDR    integral  32    'd1976    
  ARLEN     integral  4     'd3       
  ARSIZE    integral  3     'd2       
  ARBURST   integral  2     'd0       
  RID       integral  4     10        
  RDATA[0]  integral  32    'h6b4b7d1f
  RRESP[0]  integral  2     'd0       
  RDATA[1]  integral  32    'h5393c28a
  RRESP[1]  integral  2     'd0       
  RDATA[2]  integral  32    'hb0c06b92
  RRESP[2]  integral  2     'd0       
  RDATA[3]  integral  32    'h4541acca
  RRESP[3]  integral  2     'd0       
--------------------------------------

UVM_INFO ../tb/sb.sv(98) @ 365000: uvm_test_top.env.sb[0] [scoreboard] Data Matched
UVM_INFO ../Master_agent/master_driver.sv(179) @ 365000: uvm_test_top.env.m_agt_top.m_agt[0].m_drvh [master_driver] 

Read Address and Control signal driven are
 ARID : 2 
 ARADDRESS : 3400 
 ARLEN : 3 
 ARSIZE : 2 
 ARBURST : 0
UVM_INFO ../Interface/interface.sv(163) @ 365000: reporter [Property Read Address Handshake] 
Arready went low after handshake
UVM_INFO ../Interface/interface.sv(148) @ 375000: reporter [Property Write Address Handshake] 
Awready went low after handshake
UVM_INFO ../Interface/interface.sv(168) @ 375000: reporter [Property Read Data Handshake] 
rready went low after handshake
UVM_INFO ../Master_agent/master_driver.sv(133) @ 385000: uvm_test_top.env.m_agt_top.m_agt[0].m_drvh [master_driver] 
WDATA[3] : c26aa3f6 | WSTRB[3] : 4
UVM_INFO ../Interface/interface.sv(153) @ 385000: reporter [Property Write Data Handshake] 
wready went low after handshake
UVM_INFO ../tb/sb.sv(98) @ 395000: uvm_test_top.env.sb[0] [scoreboard] Data Matched
UVM_INFO ../Master_agent/master_driver.sv(112) @ 405000: uvm_test_top.env.m_agt_top.m_agt[0].m_drvh [master_driver] 

Write Address and Control signals driven are 
 AWID : 5 
 Address : 3683 
 AWLEN : 3 
 AWSIZE : 0 
 AWBURST : 0
UVM_INFO ../Interface/interface.sv(153) @ 405000: reporter [Property Write Data Handshake] 
wready went low after handshake
UVM_INFO ../tb/sb.sv(98) @ 415000: uvm_test_top.env.sb[0] [scoreboard] Data Matched
UVM_INFO ../tb/sb.sv(98) @ 415000: uvm_test_top.env.sb[0] [scoreboard] Data Matched
UVM_INFO ../Interface/interface.sv(148) @ 425000: reporter [Property Write Address Handshake] 
Awready went low after handshake
UVM_INFO ../Interface/interface.sv(163) @ 425000: reporter [Property Read Address Handshake] 
Arready went low after handshake
UVM_INFO ../Master_agent/master_monitor.sv(140) @ 445000: uvm_test_top.env.m_agt_top.m_agt[0].m_monh [master_monitor] The Write Transaction Data 
------------------------------------
Name        Type      Size  Value   
------------------------------------
wtx         txn       -     @1131   
  AWID      integral  4     11      
  AWADDR    integral  32    'd2678  
  AWLEN     integral  4     'd3     
  AWSIZE    integral  3     'd0     
  AWBURST   integral  2     'd0     
  WID       integral  4     11      
  WDATA[0]  integral  32    'h270000
  WSTRB[0]  integral  4     'b100   
  WDATA[1]  integral  32    'h820000
  WSTRB[1]  integral  4     'b100   
  WDATA[2]  integral  32    'h6c0000
  WSTRB[2]  integral  4     'b100   
  WDATA[3]  integral  32    'h6a0000
  WSTRB[3]  integral  4     'b100   
  BID       integral  4     11      
  BRESP     integral  2     'd0     
  ARID      integral  4     'd0     
  ARADDR    integral  32    'd0     
  ARLEN     integral  4     'd0     
  ARSIZE    integral  3     'd0     
  ARBURST   integral  2     'd0     
  RID       integral  4     'd0     
------------------------------------

UVM_INFO ../Slave_agent/slave_monitor.sv(138) @ 445000: uvm_test_top.env.s_agt_top.s_agt[0].s_monh [slave_monitor] The Write Transaction Data 
------------------------------------
Name        Type      Size  Value   
------------------------------------
wtx         txn       -     @1139   
  AWID      integral  4     11      
  AWADDR    integral  32    'd2678  
  AWLEN     integral  4     'd3     
  AWSIZE    integral  3     'd0     
  AWBURST   integral  2     'd0     
  WID       integral  4     11      
  WDATA[0]  integral  32    'h270000
  WSTRB[0]  integral  4     'b100   
  WDATA[1]  integral  32    'h820000
  WSTRB[1]  integral  4     'b100   
  WDATA[2]  integral  32    'h6c0000
  WSTRB[2]  integral  4     'b100   
  WDATA[3]  integral  32    'h6a0000
  WSTRB[3]  integral  4     'b100   
  BID       integral  4     11      
  BRESP     integral  2     'd0     
  ARID      integral  4     'd0     
  ARADDR    integral  32    'd0     
  ARLEN     integral  4     'd0     
  ARSIZE    integral  3     'd0     
  ARBURST   integral  2     'd0     
  RID       integral  4     'd0     
------------------------------------

UVM_INFO ../tb/sb.sv(98) @ 445000: uvm_test_top.env.sb[0] [scoreboard] Data Matched
UVM_INFO ../Slave_agent/slave_driver.sv(172) @ 445000: uvm_test_top.env.s_agt_top.s_agt[0].s_drvh [slave_driver] 
Got RREADY
UVM_INFO ../Master_agent/master_driver.sv(133) @ 445000: uvm_test_top.env.m_agt_top.m_agt[0].m_drvh [master_driver] 
WDATA[0] : 4450ba70 | WSTRB[0] : c
UVM_INFO ../Interface/interface.sv(158) @ 455000: reporter [Property Write response Handshake] 
bready went low after handshake
UVM_INFO ../Interface/interface.sv(168) @ 455000: reporter [Property Read Data Handshake] 
rready went low after handshake
UVM_INFO ../Master_agent/master_driver.sv(133) @ 465000: uvm_test_top.env.m_agt_top.m_agt[0].m_drvh [master_driver] 
WDATA[1] : 10fa70aa | WSTRB[1] : c
UVM_INFO ../Interface/interface.sv(153) @ 465000: reporter [Property Write Data Handshake] 
wready went low after handshake
UVM_INFO ../Slave_agent/slave_driver.sv(172) @ 485000: uvm_test_top.env.s_agt_top.s_agt[0].s_drvh [slave_driver] 
Got RREADY
UVM_INFO ../Master_agent/master_driver.sv(133) @ 485000: uvm_test_top.env.m_agt_top.m_agt[0].m_drvh [master_driver] 
WDATA[2] : 5cb4ed13 | WSTRB[2] : c
UVM_INFO ../Interface/interface.sv(153) @ 485000: reporter [Property Write Data Handshake] 
wready went low after handshake
UVM_INFO ../Interface/interface.sv(168) @ 495000: reporter [Property Read Data Handshake] 
rready went low after handshake
UVM_INFO ../Master_agent/master_driver.sv(133) @ 515000: uvm_test_top.env.m_agt_top.m_agt[0].m_drvh [master_driver] 
WDATA[3] : 3c1277c7 | WSTRB[3] : c
UVM_INFO ../Interface/interface.sv(153) @ 515000: reporter [Property Write Data Handshake] 
wready went low after handshake
UVM_INFO ../tb/sb.sv(98) @ 535000: uvm_test_top.env.sb[0] [scoreboard] Data Matched
UVM_INFO ../Slave_agent/slave_driver.sv(172) @ 545000: uvm_test_top.env.s_agt_top.s_agt[0].s_drvh [slave_driver] 
Got RREADY
UVM_INFO ../Interface/interface.sv(153) @ 545000: reporter [Property Write Data Handshake] 
wready went low after handshake
UVM_INFO ../Interface/interface.sv(168) @ 555000: reporter [Property Read Data Handshake] 
rready went low after handshake
UVM_INFO ../Master_agent/master_monitor.sv(140) @ 565000: uvm_test_top.env.m_agt_top.m_agt[0].m_monh [master_monitor] The Write Transaction Data 
--------------------------------------
Name        Type      Size  Value     
--------------------------------------
wtx         txn       -     @1159     
  AWID      integral  4     12        
  AWADDR    integral  32    'd2926    
  AWLEN     integral  4     'd3       
  AWSIZE    integral  3     'd1       
  AWBURST   integral  2     'd0       
  WID       integral  4     12        
  WDATA[0]  integral  32    'h44500000
  WSTRB[0]  integral  4     'b1100    
  WDATA[1]  integral  32    'h10fa0000
  WSTRB[1]  integral  4     'b1100    
  WDATA[2]  integral  32    'h5cb40000
  WSTRB[2]  integral  4     'b1100    
  WDATA[3]  integral  32    'h3c120000
  WSTRB[3]  integral  4     'b1100    
  BID       integral  4     12        
  BRESP     integral  2     'd0       
  ARID      integral  4     'd0       
  ARADDR    integral  32    'd0       
  ARLEN     integral  4     'd0       
  ARSIZE    integral  3     'd0       
  ARBURST   integral  2     'd0       
  RID       integral  4     'd0       
--------------------------------------

UVM_INFO ../Slave_agent/slave_monitor.sv(138) @ 565000: uvm_test_top.env.s_agt_top.s_agt[0].s_monh [slave_monitor] The Write Transaction Data 
--------------------------------------
Name        Type      Size  Value     
--------------------------------------
wtx         txn       -     @1163     
  AWID      integral  4     12        
  AWADDR    integral  32    'd2926    
  AWLEN     integral  4     'd3       
  AWSIZE    integral  3     'd1       
  AWBURST   integral  2     'd0       
  WID       integral  4     12        
  WDATA[0]  integral  32    'h44500000
  WSTRB[0]  integral  4     'b1100    
  WDATA[1]  integral  32    'h10fa0000
  WSTRB[1]  integral  4     'b1100    
  WDATA[2]  integral  32    'h5cb40000
  WSTRB[2]  integral  4     'b1100    
  WDATA[3]  integral  32    'h3c120000
  WSTRB[3]  integral  4     'b1100    
  BID       integral  4     12        
  BRESP     integral  2     'd0       
  ARID      integral  4     'd0       
  ARADDR    integral  32    'd0       
  ARLEN     integral  4     'd0       
  ARSIZE    integral  3     'd0       
  ARBURST   integral  2     'd0       
  RID       integral  4     'd0       
--------------------------------------

UVM_INFO ../tb/sb.sv(98) @ 565000: uvm_test_top.env.sb[0] [scoreboard] Data Matched
UVM_INFO ../Slave_agent/slave_driver.sv(165) @ 565000: uvm_test_top.env.s_agt_top.s_agt[0].s_drvh [slave_driver] 

Asserting RLAST
UVM_INFO ../Master_agent/master_driver.sv(133) @ 565000: uvm_test_top.env.m_agt_top.m_agt[0].m_drvh [master_driver] 
WDATA[0] : ed7590b5 | WSTRB[0] : f
UVM_INFO ../Interface/interface.sv(158) @ 575000: reporter [Property Write response Handshake] 
bready went low after handshake
UVM_INFO ../Slave_agent/slave_driver.sv(172) @ 585000: uvm_test_top.env.s_agt_top.s_agt[0].s_drvh [slave_driver] 
Got RREADY
UVM_INFO ../Master_agent/master_driver.sv(133) @ 585000: uvm_test_top.env.m_agt_top.m_agt[0].m_drvh [master_driver] 
WDATA[1] : df76bf56 | WSTRB[1] : f
UVM_INFO ../Master_agent/master_monitor.sv(175) @ 585000: uvm_test_top.env.m_agt_top.m_agt[0].m_monh [master_monitor] The Read Transaction Data 
--------------------------------------
Name        Type      Size  Value     
--------------------------------------
rtx         txn       -     @1135     
  AWID      integral  4     'd0       
  AWADDR    integral  32    'd0       
  AWLEN     integral  4     'd0       
  AWSIZE    integral  3     'd0       
  AWBURST   integral  2     'd0       
  WID       integral  4     'd0       
  BID       integral  4     'd0       
  BRESP     integral  2     'd0       
  ARID      integral  4     12        
  ARADDR    integral  32    'd2608    
  ARLEN     integral  4     'd3       
  ARSIZE    integral  3     'd1       
  ARBURST   integral  2     'd0       
  RID       integral  4     12        
  RDATA[0]  integral  32    'he1b1ea9f
  RRESP[0]  integral  2     'd0       
  RDATA[1]  integral  32    'h36d6cb9c
  RRESP[1]  integral  2     'd0       
  RDATA[2]  integral  32    'hb7d1c96e
  RRESP[2]  integral  2     'd0       
  RDATA[3]  integral  32    'hbbf24056
  RRESP[3]  integral  2     'd0       
--------------------------------------

UVM_INFO ../Slave_agent/slave_monitor.sv(171) @ 585000: uvm_test_top.env.s_agt_top.s_agt[0].s_monh [slave_monitor] The Read Transaction Data 
--------------------------------------
Name        Type      Size  Value     
--------------------------------------
rtx         txn       -     @1143     
  AWID      integral  4     'd0       
  AWADDR    integral  32    'd0       
  AWLEN     integral  4     'd0       
  AWSIZE    integral  3     'd0       
  AWBURST   integral  2     'd0       
  WID       integral  4     'd0       
  BID       integral  4     'd0       
  BRESP     integral  2     'd0       
  ARID      integral  4     12        
  ARADDR    integral  32    'd2608    
  ARLEN     integral  4     'd3       
  ARSIZE    integral  3     'd1       
  ARBURST   integral  2     'd0       
  RID       integral  4     12        
  RDATA[0]  integral  32    'he1b1ea9f
  RRESP[0]  integral  2     'd0       
  RDATA[1]  integral  32    'h36d6cb9c
  RRESP[1]  integral  2     'd0       
  RDATA[2]  integral  32    'hb7d1c96e
  RRESP[2]  integral  2     'd0       
  RDATA[3]  integral  32    'hbbf24056
  RRESP[3]  integral  2     'd0       
--------------------------------------

UVM_INFO ../tb/sb.sv(98) @ 585000: uvm_test_top.env.sb[0] [scoreboard] Data Matched
UVM_INFO ../Interface/interface.sv(153) @ 585000: reporter [Property Write Data Handshake] 
wready went low after handshake
UVM_INFO ../Interface/interface.sv(168) @ 595000: reporter [Property Read Data Handshake] 
rready went low after handshake
UVM_INFO ../Master_agent/master_driver.sv(133) @ 605000: uvm_test_top.env.m_agt_top.m_agt[0].m_drvh [master_driver] 
WDATA[2] : ea89124d | WSTRB[2] : f
UVM_INFO ../Interface/interface.sv(153) @ 605000: reporter [Property Write Data Handshake] 
wready went low after handshake
UVM_INFO ../Master_agent/master_driver.sv(133) @ 625000: uvm_test_top.env.m_agt_top.m_agt[0].m_drvh [master_driver] 
WDATA[3] : 98394a68 | WSTRB[3] : f
UVM_INFO ../Interface/interface.sv(153) @ 635000: reporter [Property Write Data Handshake] 
wready went low after handshake
UVM_INFO ../Slave_agent/slave_driver.sv(172) @ 655000: uvm_test_top.env.s_agt_top.s_agt[0].s_drvh [slave_driver] 
Got RREADY
UVM_INFO ../tb/sb.sv(98) @ 655000: uvm_test_top.env.sb[0] [scoreboard] Data Matched
UVM_INFO ../Interface/interface.sv(153) @ 665000: reporter [Property Write Data Handshake] 
wready went low after handshake
UVM_INFO ../Interface/interface.sv(168) @ 665000: reporter [Property Read Data Handshake] 
rready went low after handshake
UVM_INFO ../Master_agent/master_monitor.sv(140) @ 685000: uvm_test_top.env.m_agt_top.m_agt[0].m_monh [master_monitor] The Write Transaction Data 
--------------------------------------
Name        Type      Size  Value     
--------------------------------------
wtx         txn       -     @1187     
  AWID      integral  4     'd4       
  AWADDR    integral  32    'd696     
  AWLEN     integral  4     'd3       
  AWSIZE    integral  3     'd2       
  AWBURST   integral  2     'd0       
  WID       integral  4     'd4       
  WDATA[0]  integral  32    'hed7590b5
  WSTRB[0]  integral  4     'b1111    
  WDATA[1]  integral  32    'hdf76bf56
  WSTRB[1]  integral  4     'b1111    
  WDATA[2]  integral  32    'hea89124d
  WSTRB[2]  integral  4     'b1111    
  WDATA[3]  integral  32    'h98394a68
  WSTRB[3]  integral  4     'b1111    
  BID       integral  4     'd4       
  BRESP     integral  2     'd0       
  ARID      integral  4     'd0       
  ARADDR    integral  32    'd0       
  ARLEN     integral  4     'd0       
  ARSIZE    integral  3     'd0       
  ARBURST   integral  2     'd0       
  RID       integral  4     'd0       
--------------------------------------

UVM_INFO ../Slave_agent/slave_monitor.sv(138) @ 685000: uvm_test_top.env.s_agt_top.s_agt[0].s_monh [slave_monitor] The Write Transaction Data 
--------------------------------------
Name        Type      Size  Value     
--------------------------------------
wtx         txn       -     @1191     
  AWID      integral  4     'd4       
  AWADDR    integral  32    'd696     
  AWLEN     integral  4     'd3       
  AWSIZE    integral  3     'd2       
  AWBURST   integral  2     'd0       
  WID       integral  4     'd4       
  WDATA[0]  integral  32    'hed7590b5
  WSTRB[0]  integral  4     'b1111    
  WDATA[1]  integral  32    'hdf76bf56
  WSTRB[1]  integral  4     'b1111    
  WDATA[2]  integral  32    'hea89124d
  WSTRB[2]  integral  4     'b1111    
  WDATA[3]  integral  32    'h98394a68
  WSTRB[3]  integral  4     'b1111    
  BID       integral  4     'd4       
  BRESP     integral  2     'd0       
  ARID      integral  4     'd0       
  ARADDR    integral  32    'd0       
  ARLEN     integral  4     'd0       
  ARSIZE    integral  3     'd0       
  ARBURST   integral  2     'd0       
  RID       integral  4     'd0       
--------------------------------------

UVM_INFO ../tb/sb.sv(98) @ 685000: uvm_test_top.env.sb[0] [scoreboard] Data Matched
UVM_INFO ../Slave_agent/slave_driver.sv(172) @ 685000: uvm_test_top.env.s_agt_top.s_agt[0].s_drvh [slave_driver] 
Got RREADY
UVM_INFO ../Master_agent/master_driver.sv(133) @ 685000: uvm_test_top.env.m_agt_top.m_agt[0].m_drvh [master_driver] 
WDATA[0] : 25b18966 | WSTRB[0] : 3
UVM_INFO ../Interface/interface.sv(158) @ 695000: reporter [Property Write response Handshake] 
bready went low after handshake
UVM_INFO ../Interface/interface.sv(168) @ 695000: reporter [Property Read Data Handshake] 
rready went low after handshake
UVM_INFO ../Interface/interface.sv(153) @ 705000: reporter [Property Write Data Handshake] 
wready went low after handshake
UVM_INFO ../Master_agent/master_driver.sv(133) @ 715000: uvm_test_top.env.m_agt_top.m_agt[0].m_drvh [master_driver] 
WDATA[1] : f653367f | WSTRB[1] : 3
UVM_INFO ../Slave_agent/slave_driver.sv(172) @ 725000: uvm_test_top.env.s_agt_top.s_agt[0].s_drvh [slave_driver] 
Got RREADY
UVM_INFO ../Interface/interface.sv(153) @ 735000: reporter [Property Write Data Handshake] 
wready went low after handshake
UVM_INFO ../Interface/interface.sv(168) @ 735000: reporter [Property Read Data Handshake] 
rready went low after handshake
UVM_INFO ../Slave_agent/slave_driver.sv(165) @ 745000: uvm_test_top.env.s_agt_top.s_agt[0].s_drvh [slave_driver] 

Asserting RLAST
UVM_INFO ../Master_agent/master_driver.sv(133) @ 745000: uvm_test_top.env.m_agt_top.m_agt[0].m_drvh [master_driver] 
WDATA[2] : 299a89b | WSTRB[2] : 3
UVM_INFO ../Interface/interface.sv(153) @ 765000: reporter [Property Write Data Handshake] 
wready went low after handshake
UVM_INFO ../Master_agent/master_driver.sv(133) @ 775000: uvm_test_top.env.m_agt_top.m_agt[0].m_drvh [master_driver] 
WDATA[3] : b36a2700 | WSTRB[3] : 3
UVM_INFO ../Slave_agent/slave_driver.sv(172) @ 785000: uvm_test_top.env.s_agt_top.s_agt[0].s_drvh [slave_driver] 
Got RREADY
UVM_INFO ../Master_agent/master_monitor.sv(175) @ 785000: uvm_test_top.env.m_agt_top.m_agt[0].m_monh [master_monitor] The Read Transaction Data 
--------------------------------------
Name        Type      Size  Value     
--------------------------------------
rtx         txn       -     @1171     
  AWID      integral  4     'd0       
  AWADDR    integral  32    'd0       
  AWLEN     integral  4     'd0       
  AWSIZE    integral  3     'd0       
  AWBURST   integral  2     'd0       
  WID       integral  4     'd0       
  BID       integral  4     'd0       
  BRESP     integral  2     'd0       
  ARID      integral  4     'd3       
  ARADDR    integral  32    'd196     
  ARLEN     integral  4     'd3       
  ARSIZE    integral  3     'd0       
  ARBURST   integral  2     'd0       
  RID       integral  4     'd3       
  RDATA[0]  integral  32    'hb96a9b80
  RRESP[0]  integral  2     'd0       
  RDATA[1]  integral  32    'h9adb2d8f
  RRESP[1]  integral  2     'd0       
  RDATA[2]  integral  32    'h916cbffc
  RRESP[2]  integral  2     'd0       
  RDATA[3]  integral  32    'hb532ec56
  RRESP[3]  integral  2     'd0       
--------------------------------------

UVM_INFO ../Slave_agent/slave_monitor.sv(171) @ 785000: uvm_test_top.env.s_agt_top.s_agt[0].s_monh [slave_monitor] The Read Transaction Data 
--------------------------------------
Name        Type      Size  Value     
--------------------------------------
rtx         txn       -     @1175     
  AWID      integral  4     'd0       
  AWADDR    integral  32    'd0       
  AWLEN     integral  4     'd0       
  AWSIZE    integral  3     'd0       
  AWBURST   integral  2     'd0       
  WID       integral  4     'd0       
  BID       integral  4     'd0       
  BRESP     integral  2     'd0       
  ARID      integral  4     'd3       
  ARADDR    integral  32    'd196     
  ARLEN     integral  4     'd3       
  ARSIZE    integral  3     'd0       
  ARBURST   integral  2     'd0       
  RID       integral  4     'd3       
  RDATA[0]  integral  32    'hb96a9b80
  RRESP[0]  integral  2     'd0       
  RDATA[1]  integral  32    'h9adb2d8f
  RRESP[1]  integral  2     'd0       
  RDATA[2]  integral  32    'h916cbffc
  RRESP[2]  integral  2     'd0       
  RDATA[3]  integral  32    'hb532ec56
  RRESP[3]  integral  2     'd0       
--------------------------------------

UVM_INFO ../tb/sb.sv(98) @ 785000: uvm_test_top.env.sb[0] [scoreboard] Data Matched
UVM_INFO ../tb/sb.sv(98) @ 785000: uvm_test_top.env.sb[0] [scoreboard] Data Matched
UVM_INFO ../Interface/interface.sv(153) @ 795000: reporter [Property Write Data Handshake] 
wready went low after handshake
UVM_INFO ../Interface/interface.sv(168) @ 795000: reporter [Property Read Data Handshake] 
rready went low after handshake
UVM_INFO ../Master_agent/master_monitor.sv(140) @ 815000: uvm_test_top.env.m_agt_top.m_agt[0].m_monh [master_monitor] The Write Transaction Data 
----------------------------------
Name        Type      Size  Value 
----------------------------------
wtx         txn       -     @1211 
  AWID      integral  4     15    
  AWADDR    integral  32    'd1068
  AWLEN     integral  4     'd3   
  AWSIZE    integral  3     'd1   
  AWBURST   integral  2     'd0   
  WID       integral  4     15    
  WDATA[0]  integral  32    'h8966
  WSTRB[0]  integral  4     'b11  
  WDATA[1]  integral  32    'h367f
  WSTRB[1]  integral  4     'b11  
  WDATA[2]  integral  32    'ha89b
  WSTRB[2]  integral  4     'b11  
  WDATA[3]  integral  32    'h2700
  WSTRB[3]  integral  4     'b11  
  BID       integral  4     15    
  BRESP     integral  2     'd0   
  ARID      integral  4     'd0   
  ARADDR    integral  32    'd0   
  ARLEN     integral  4     'd0   
  ARSIZE    integral  3     'd0   
  ARBURST   integral  2     'd0   
  RID       integral  4     'd0   
----------------------------------

UVM_INFO ../Slave_agent/slave_monitor.sv(138) @ 815000: uvm_test_top.env.s_agt_top.s_agt[0].s_monh [slave_monitor] The Write Transaction Data 
----------------------------------
Name        Type      Size  Value 
----------------------------------
wtx         txn       -     @1215 
  AWID      integral  4     15    
  AWADDR    integral  32    'd1068
  AWLEN     integral  4     'd3   
  AWSIZE    integral  3     'd1   
  AWBURST   integral  2     'd0   
  WID       integral  4     15    
  WDATA[0]  integral  32    'h8966
  WSTRB[0]  integral  4     'b11  
  WDATA[1]  integral  32    'h367f
  WSTRB[1]  integral  4     'b11  
  WDATA[2]  integral  32    'ha89b
  WSTRB[2]  integral  4     'b11  
  WDATA[3]  integral  32    'h2700
  WSTRB[3]  integral  4     'b11  
  BID       integral  4     15    
  BRESP     integral  2     'd0   
  ARID      integral  4     'd0   
  ARADDR    integral  32    'd0   
  ARLEN     integral  4     'd0   
  ARSIZE    integral  3     'd0   
  ARBURST   integral  2     'd0   
  RID       integral  4     'd0   
----------------------------------

UVM_INFO ../tb/sb.sv(98) @ 815000: uvm_test_top.env.sb[0] [scoreboard] Data Matched
UVM_INFO ../Master_agent/master_driver.sv(133) @ 825000: uvm_test_top.env.m_agt_top.m_agt[0].m_drvh [master_driver] 
WDATA[0] : fdaa1c7a | WSTRB[0] : c
UVM_INFO ../Interface/interface.sv(158) @ 825000: reporter [Property Write response Handshake] 
bready went low after handshake
UVM_INFO ../Interface/interface.sv(153) @ 845000: reporter [Property Write Data Handshake] 
wready went low after handshake
UVM_INFO ../Master_agent/master_driver.sv(133) @ 855000: uvm_test_top.env.m_agt_top.m_agt[0].m_drvh [master_driver] 
WDATA[1] : fd4ef3ae | WSTRB[1] : c
UVM_INFO ../Slave_agent/slave_driver.sv(172) @ 855000: uvm_test_top.env.s_agt_top.s_agt[0].s_drvh [slave_driver] 
Got RREADY
UVM_INFO ../Interface/interface.sv(168) @ 865000: reporter [Property Read Data Handshake] 
rready went low after handshake
UVM_INFO ../Master_agent/master_driver.sv(133) @ 875000: uvm_test_top.env.m_agt_top.m_agt[0].m_drvh [master_driver] 
WDATA[2] : dddafd42 | WSTRB[2] : c
UVM_INFO ../Interface/interface.sv(153) @ 875000: reporter [Property Write Data Handshake] 
wready went low after handshake
UVM_INFO ../Slave_agent/slave_driver.sv(172) @ 895000: uvm_test_top.env.s_agt_top.s_agt[0].s_drvh [slave_driver] 
Got RREADY
UVM_INFO ../Interface/interface.sv(153) @ 895000: reporter [Property Write Data Handshake] 
wready went low after handshake
UVM_INFO ../Master_agent/master_driver.sv(133) @ 905000: uvm_test_top.env.m_agt_top.m_agt[0].m_drvh [master_driver] 
WDATA[3] : cbf0f5fb | WSTRB[3] : c
UVM_INFO ../Interface/interface.sv(168) @ 905000: reporter [Property Read Data Handshake] 
rready went low after handshake
UVM_INFO ../tb/sb.sv(98) @ 915000: uvm_test_top.env.sb[0] [scoreboard] Data Matched
UVM_INFO ../Interface/interface.sv(153) @ 925000: reporter [Property Write Data Handshake] 
wready went low after handshake
UVM_INFO ../Slave_agent/slave_driver.sv(172) @ 945000: uvm_test_top.env.s_agt_top.s_agt[0].s_drvh [slave_driver] 
Got RREADY
UVM_INFO ../Interface/interface.sv(168) @ 955000: reporter [Property Read Data Handshake] 
rready went low after handshake
UVM_INFO ../Slave_agent/slave_driver.sv(165) @ 965000: uvm_test_top.env.s_agt_top.s_agt[0].s_drvh [slave_driver] 

Asserting RLAST
UVM_INFO ../Master_agent/master_monitor.sv(140) @ 975000: uvm_test_top.env.m_agt_top.m_agt[0].m_monh [master_monitor] The Write Transaction Data 
--------------------------------------
Name        Type      Size  Value     
--------------------------------------
wtx         txn       -     @1239     
  AWID      integral  4     'd2       
  AWADDR    integral  32    'd2350    
  AWLEN     integral  4     'd3       
  AWSIZE    integral  3     'd1       
  AWBURST   integral  2     'd0       
  WID       integral  4     'd2       
  WDATA[0]  integral  32    'hfdaa0000
  WSTRB[0]  integral  4     'b1100    
  WDATA[1]  integral  32    'hfd4e0000
  WSTRB[1]  integral  4     'b1100    
  WDATA[2]  integral  32    'hddda0000
  WSTRB[2]  integral  4     'b1100    
  WDATA[3]  integral  32    'hcbf00000
  WSTRB[3]  integral  4     'b1100    
  BID       integral  4     'd2       
  BRESP     integral  2     'd0       
  ARID      integral  4     'd0       
  ARADDR    integral  32    'd0       
  ARLEN     integral  4     'd0       
  ARSIZE    integral  3     'd0       
  ARBURST   integral  2     'd0       
  RID       integral  4     'd0       
--------------------------------------

UVM_INFO ../Slave_agent/slave_monitor.sv(138) @ 975000: uvm_test_top.env.s_agt_top.s_agt[0].s_monh [slave_monitor] The Write Transaction Data 
--------------------------------------
Name        Type      Size  Value     
--------------------------------------
wtx         txn       -     @1243     
  AWID      integral  4     'd2       
  AWADDR    integral  32    'd2350    
  AWLEN     integral  4     'd3       
  AWSIZE    integral  3     'd1       
  AWBURST   integral  2     'd0       
  WID       integral  4     'd2       
  WDATA[0]  integral  32    'hfdaa0000
  WSTRB[0]  integral  4     'b1100    
  WDATA[1]  integral  32    'hfd4e0000
  WSTRB[1]  integral  4     'b1100    
  WDATA[2]  integral  32    'hddda0000
  WSTRB[2]  integral  4     'b1100    
  WDATA[3]  integral  32    'hcbf00000
  WSTRB[3]  integral  4     'b1100    
  BID       integral  4     'd2       
  BRESP     integral  2     'd0       
  ARID      integral  4     'd0       
  ARADDR    integral  32    'd0       
  ARLEN     integral  4     'd0       
  ARSIZE    integral  3     'd0       
  ARBURST   integral  2     'd0       
  RID       integral  4     'd0       
--------------------------------------

UVM_INFO ../tb/sb.sv(98) @ 975000: uvm_test_top.env.sb[0] [scoreboard] Data Matched
UVM_INFO ../Slave_agent/slave_driver.sv(172) @ 975000: uvm_test_top.env.s_agt_top.s_agt[0].s_drvh [slave_driver] 
Got RREADY
UVM_INFO ../Master_agent/master_monitor.sv(175) @ 975000: uvm_test_top.env.m_agt_top.m_agt[0].m_monh [master_monitor] The Read Transaction Data 
--------------------------------------
Name        Type      Size  Value     
--------------------------------------
rtx         txn       -     @1199     
  AWID      integral  4     'd0       
  AWADDR    integral  32    'd0       
  AWLEN     integral  4     'd0       
  AWSIZE    integral  3     'd0       
  AWBURST   integral  2     'd0       
  WID       integral  4     'd0       
  BID       integral  4     'd0       
  BRESP     integral  2     'd0       
  ARID      integral  4     8         
  ARADDR    integral  32    'd2468    
  ARLEN     integral  4     'd3       
  ARSIZE    integral  3     'd0       
  ARBURST   integral  2     'd0       
  RID       integral  4     8         
  RDATA[0]  integral  32    'h99cffc51
  RRESP[0]  integral  2     'd0       
  RDATA[1]  integral  32    'h92f0e336
  RRESP[1]  integral  2     'd0       
  RDATA[2]  integral  32    'hbd291d67
  RRESP[2]  integral  2     'd0       
  RDATA[3]  integral  32    'he12447eb
  RRESP[3]  integral  2     'd0       
--------------------------------------

UVM_INFO ../Slave_agent/slave_monitor.sv(171) @ 975000: uvm_test_top.env.s_agt_top.s_agt[0].s_monh [slave_monitor] The Read Transaction Data 
--------------------------------------
Name        Type      Size  Value     
--------------------------------------
rtx         txn       -     @1203     
  AWID      integral  4     'd0       
  AWADDR    integral  32    'd0       
  AWLEN     integral  4     'd0       
  AWSIZE    integral  3     'd0       
  AWBURST   integral  2     'd0       
  WID       integral  4     'd0       
  BID       integral  4     'd0       
  BRESP     integral  2     'd0       
  ARID      integral  4     8         
  ARADDR    integral  32    'd2468    
  ARLEN     integral  4     'd3       
  ARSIZE    integral  3     'd0       
  ARBURST   integral  2     'd0       
  RID       integral  4     8         
  RDATA[0]  integral  32    'h99cffc51
  RRESP[0]  integral  2     'd0       
  RDATA[1]  integral  32    'h92f0e336
  RRESP[1]  integral  2     'd0       
  RDATA[2]  integral  32    'hbd291d67
  RRESP[2]  integral  2     'd0       
  RDATA[3]  integral  32    'he12447eb
  RRESP[3]  integral  2     'd0       
--------------------------------------

UVM_INFO ../tb/sb.sv(98) @ 975000: uvm_test_top.env.sb[0] [scoreboard] Data Matched
UVM_INFO ../Master_agent/master_driver.sv(133) @ 985000: uvm_test_top.env.m_agt_top.m_agt[0].m_drvh [master_driver] 
WDATA[0] : 52ed6e6f | WSTRB[0] : 3
UVM_INFO ../Interface/interface.sv(158) @ 985000: reporter [Property Write response Handshake] 
bready went low after handshake
UVM_INFO ../Interface/interface.sv(168) @ 985000: reporter [Property Read Data Handshake] 
rready went low after handshake
UVM_INFO ../Master_agent/master_driver.sv(133) @ 1005000: uvm_test_top.env.m_agt_top.m_agt[0].m_drvh [master_driver] 
WDATA[1] : 7f2d9aee | WSTRB[1] : 3
UVM_INFO ../Interface/interface.sv(153) @ 1005000: reporter [Property Write Data Handshake] 
wready went low after handshake
UVM_INFO ../Interface/interface.sv(153) @ 1025000: reporter [Property Write Data Handshake] 
wready went low after handshake
